! Data provided by Modelithics, Inc.  Tampa, Florida USA, June 2008
!Model SAV-541+
!VAR V_out= 2
!VAR I_out= 30
!VAR V_in= 0.3940
!VAR I_in= 0.9720
!BEGIN ACDATA
# GHZ S MA R 50
! Scattering Parameters
!% F n11x n11y n21x n21y n12x n12y n22x n22y
       0.1000 0.99922  -16.364  22.85012  169.755  0.01031   79.864  0.55799  -12.717
      0.14475 0.97908  -22.735  22.09092  164.885  0.01327   79.221  0.55845  -16.660
       0.1895 0.96981  -29.636  21.85516  160.469  0.01708   74.070  0.54698  -21.697
      0.23425 0.95630  -36.483  21.48913  156.148  0.02088   69.962  0.53289  -27.192
       0.2790 0.93610  -42.554  20.91986  151.729  0.02351   68.337  0.52071  -31.783
      0.32375 0.93469  -49.845  20.55382  147.788  0.02803   65.836  0.50874  -36.725
       0.3685 0.91170  -55.777  19.89824  143.790  0.03038   60.996  0.49047  -41.419
      0.41325 0.90172  -61.438  19.33608  140.093  0.03300   58.916  0.47844  -46.305
       0.4580 0.88831  -66.675  18.66969  136.975  0.03497   56.903  0.46564  -49.407
      0.50275 0.87571  -72.610  18.12476  133.442  0.03843   54.864  0.45148  -54.407
       0.5475 0.85940  -77.135  17.49245  130.404  0.04059   51.548  0.43793  -57.674
      0.59225 0.84040  -82.261  16.85258  127.419  0.04178   49.572  0.42212  -60.992
       0.6370 0.83139  -86.855  16.32335  124.543  0.04429   48.540  0.41377  -64.893
      0.68175 0.82150  -91.267  15.77275  121.871  0.04541   46.530  0.39964  -68.215
       0.7265 0.80794  -95.662  15.22691  119.303  0.04650   44.772  0.38644  -71.529
      0.77125 0.79739  -99.433  14.71302  116.860  0.04830   43.346  0.37341  -74.379
       0.8160 0.78536 -103.550  14.21668  114.454  0.04943   41.993  0.36134  -77.425
      0.86075 0.77702 -107.365  13.76518  112.176  0.05072   40.050  0.34956  -80.618
       0.9055 0.76654 -110.488  13.30989  110.103  0.05123   39.528  0.34000  -82.870
      0.95025 0.76069 -114.368  12.89596  107.966  0.05292   38.268  0.33066  -85.916
       0.9950 0.75125 -117.628  12.48014  106.010  0.05335   37.337  0.32058  -88.439
      1.03975 0.74474 -120.907  12.10848  104.094  0.05436   36.261  0.31242  -91.254
       1.0845 0.73731 -123.792  11.72240  102.214  0.05542   35.281  0.30410  -93.497
      1.12925 0.73149 -126.607  11.39687  100.516  0.05652   34.655  0.29523  -95.906
       1.1740 0.72703 -129.628  11.05616   98.751  0.05726   33.546  0.28825  -98.187
      1.21875 0.72002 -132.310  10.74088   97.078  0.05763   33.060  0.28223 -100.353
       1.2635 0.71645 -135.017  10.44532   95.432  0.05886   32.139  0.27482 -102.792
      1.30825 0.71244 -137.344  10.15580   93.962  0.05933   31.264  0.26873 -105.097
       1.3530 0.70665 -139.923  9.87868   92.366  0.06025   30.715  0.26293 -106.923
      1.39775 0.70383 -142.313  9.62727   90.913  0.06004   30.295  0.25592 -109.371
       1.4425 0.69922 -144.662  9.37782   89.404  0.06115   29.580  0.25275 -111.478
      1.48725 0.69610 -146.948  9.14546   88.008  0.06164   28.930  0.24686 -113.191
       1.5320 0.69324 -149.098  8.91567   86.547  0.06260   28.591  0.24175 -115.540
      1.57675 0.69009 -151.215  8.71017   85.195  0.06316   27.601  0.23819 -117.390
       1.6215 0.68853 -153.287  8.49395   83.880  0.06366   27.225  0.23483 -119.549
      1.66625 0.68430 -155.340  8.29376   82.534  0.06402   26.869  0.22981 -121.666
       1.7110 0.68376 -157.245  8.10951   81.269  0.06474   26.264  0.22593 -123.545
      1.75575 0.68092 -159.142  7.92556   80.042  0.06523   25.656  0.22203 -125.249
       1.8005 0.67673 -161.033  7.74496   78.756  0.06576   25.459  0.21919 -127.129
      1.84525 0.67800 -162.950  7.58696   77.536  0.06641   24.984  0.21578 -128.997
       1.8900 0.67366 -164.663  7.42130   76.333  0.06671   24.852  0.21237 -130.795
      1.93475 0.67375 -166.568  7.27172   75.098  0.06754   24.515  0.20965 -132.558
       1.9795 0.67174 -168.073  7.11812   74.023  0.06789   23.792  0.20637 -134.429
      2.02425 0.67063 -169.833  6.97847   72.829  0.06854   23.630  0.20382 -136.120
       2.0690 0.66782 -171.499  6.82982   71.727  0.06885   23.047  0.20175 -137.971
      2.11375 0.66859 -173.115  6.71234   70.574  0.06920   22.981  0.19851 -139.774
       2.1585 0.66764 -174.647  6.58504   69.492  0.07001   22.538  0.19673 -141.531
      2.20325 0.66669 -176.145  6.45910   68.401  0.07062   22.033  0.19412 -143.195
       2.2480 0.66493 -177.730  6.33961   67.340  0.07125   21.576  0.19202 -144.817
      2.29275 0.66506 -179.241  6.21905   66.155  0.07166   21.283  0.19048 -146.593
       2.3375 0.66396  179.311  6.11222   65.220  0.07226   20.963  0.18793 -148.128
      2.38225 0.66399  177.791  6.00059   64.028  0.07316   20.609  0.18686 -149.765
       2.4270 0.66436  176.333  5.90040   63.102  0.07350   20.235  0.18445 -151.599
      2.47175 0.66229  175.055  5.79583   62.016  0.07397   19.848  0.18353 -152.937
       2.5165 0.66349  173.516  5.70377   61.008  0.07413   19.581  0.18179 -154.762
      2.56125 0.66204  172.280  5.61086   59.936  0.07516   19.388  0.18049 -156.269
       2.6060 0.66160  170.830  5.52035   58.974  0.07522   18.825  0.17943 -157.903
      2.65075 0.66139  169.575  5.42808   57.936  0.07583   18.665  0.17818 -159.434
       2.6955 0.66095  168.301  5.34379   57.030  0.07659   18.646  0.17716 -161.132
      2.74025 0.66187  166.839  5.26186   55.976  0.07719   18.054  0.17638 -162.555
       2.7850 0.66123  165.621  5.17962   55.070  0.07827   17.671  0.17468 -164.187
      2.82975 0.65961  164.291  5.09837   54.025  0.07832   17.444  0.17368 -165.399
       2.8745 0.65993  163.003  5.03394   53.063  0.07844   17.083  0.17409 -167.100
      2.91925 0.66049  162.032  4.94973   52.149  0.07956   16.543  0.17301 -168.474
       2.9640 0.66043  160.539  4.88430   51.149  0.08026   16.341  0.17274 -169.964
      3.00875 0.66021  159.374  4.81148   50.232  0.08045   16.252  0.17223 -171.773
       3.0535 0.66068  158.199  4.75173   49.277  0.08122   15.811  0.17170 -173.086
      3.09825 0.65976  156.970  4.67400   48.305  0.08178   14.995  0.17104 -174.620
       3.1430 0.66144  155.892  4.62194   47.420  0.08235   14.825  0.17148 -176.010
      3.18775 0.65999  154.714  4.54894   46.478  0.08306   14.408  0.17085 -177.453
       3.2325 0.66204  153.520  4.49759   45.511  0.08336   14.508  0.17070 -179.129
      3.27725 0.66104  152.349  4.43025   44.589  0.08406   14.030  0.17017  179.843
       3.3220 0.66206  151.248  4.37554   43.666  0.08499   13.305  0.17051  177.961
      3.36675 0.66197  150.105  4.31580   42.769  0.08506   13.183  0.17065  176.620
       3.4115 0.66212  149.091  4.26000   41.856  0.08624   12.771  0.17064  175.035
      3.45625 0.66302  147.891  4.20658   40.917  0.08609   12.798  0.17075  173.763
       3.5010 0.66398  146.794  4.15605   39.892  0.08668   12.526  0.17081  172.536
      3.54575 0.66383  145.690  4.10307   38.990  0.08750   11.949  0.16988  171.008
       3.5905 0.66492  144.604  4.05632   38.051  0.08819   11.458  0.17132  169.522
      3.63525 0.66548  143.497  4.00851   37.129  0.08797   11.347  0.17098  168.288
       3.6800 0.66570  142.460  3.95818   36.268  0.08926   10.864  0.17110  166.839
      3.72475 0.66728  141.312  3.91097   35.289  0.09008   10.552  0.17194  165.353
       3.7695 0.66748  140.298  3.86727   34.458  0.09002   10.194  0.17157  164.166
      3.81425 0.66804  139.332  3.81826   33.593  0.09098    9.828  0.17249  162.798
       3.8590 0.66774  138.132  3.77362   32.660  0.09153    9.586  0.17214  161.305
      3.90375 0.66914  137.256  3.73101   31.821  0.09211    9.262  0.17310  160.007
       3.9485 0.66875  136.169  3.69097   30.959  0.09286    8.835  0.17311  158.920
      3.99325 0.67081  135.143  3.64914   30.031  0.09338    8.438  0.17337  157.043
       4.0380 0.67040  134.090  3.60931   29.174  0.09378    8.118  0.17484  156.442
      4.08275 0.67161  133.169  3.56902   28.323  0.09433    7.642  0.17444  154.951
       4.1275 0.67201  132.182  3.53400   27.413  0.09572    7.114  0.17580  153.728
      4.17225 0.67325  131.150  3.49682   26.541  0.09552    6.909  0.17694  152.622
       4.2170 0.67365  130.192  3.45591   25.659  0.09641    6.337  0.17688  151.367
      4.26175 0.67455  129.187  3.42255   24.813  0.09699    5.955  0.17957  149.823
       4.3065 0.67558  128.218  3.38537   23.922  0.09723    5.952  0.17922  148.795
      4.35125 0.67534  127.230  3.34992   23.085  0.09742    5.579  0.18069  147.306
       4.3960 0.67605  126.302  3.31196   22.226  0.09845    5.030  0.18110  146.265
      4.44075 0.67763  125.322  3.27854   21.357  0.09882    4.668  0.18168  144.937
       4.4855 0.67924  124.292  3.24534   20.428  0.09915    4.314  0.18315  143.742
      4.53025 0.67840  123.402  3.21400   19.612  0.09978    3.927  0.18486  142.716
       4.5750 0.68021  122.462  3.18072   18.769  0.10069    3.389  0.18476  141.446
      4.61975 0.68172  121.484  3.15410   17.942  0.10136    3.107  0.18762  140.308
       4.6645 0.68261  120.609  3.12142   17.039  0.10179    2.565  0.18799  139.237
      4.70925 0.68350  119.703  3.09238   16.217  0.10245    2.107  0.19025  137.821
       4.7540 0.68414  118.730  3.06033   15.363  0.10308    1.699  0.19042  137.040
      4.79875 0.68500  117.902  3.03011   14.570  0.10365    1.467  0.19184  135.802
       4.8435 0.68593  117.011  3.00078   13.744  0.10377    0.843  0.19324  134.589
      4.88825 0.68906  116.075  2.97709   12.860  0.10449    0.636  0.19431  133.558
       4.9330 0.68963  115.178  2.94700   12.035  0.10504    0.036  0.19635  132.419
      4.97775 0.69035  114.228  2.92115   11.193  0.10550   -0.224  0.19710  131.507
       5.0225 0.69091  113.323  2.89236   10.307  0.10631   -0.719  0.19888  130.157
      5.06725 0.69257  112.444  2.86495    9.512  0.10704   -1.138  0.20019  129.307
       5.1120 0.69248  111.637  2.83929    8.677  0.10739   -1.479  0.20155  128.174
      5.15675 0.69539  110.555  2.81342    7.779  0.10822   -2.045  0.20340  127.251
       5.2015 0.69583  109.890  2.79060    6.977  0.10880   -2.454  0.20528  126.235
      5.24625 0.69780  108.880  2.76365    6.111  0.10928   -2.900  0.20604  125.114
       5.2910 0.69907  107.958  2.73796    5.272  0.10919   -3.356  0.20797  123.946
      5.33575 0.69929  107.135  2.71561    4.483  0.11044   -3.624  0.20940  123.158
       5.3805 0.70212  106.279  2.69466    3.669  0.11111   -4.199  0.21150  122.192
      5.42525 0.70201  105.391  2.66552    2.809  0.11134   -4.577  0.21307  121.144
       5.4700 0.70333  104.624  2.64433    1.984  0.11213   -5.025  0.21461  120.109
      5.51475 0.70462  103.714  2.62089    1.153  0.11292   -5.611  0.21706  119.138
       5.5595 0.70562  102.899  2.59951    0.379  0.11330   -5.888  0.21826  118.167
      5.60425 0.70709  102.110  2.57597   -0.490  0.11323   -6.482  0.22007  116.970
       5.6490 0.70771  101.162  2.55245   -1.267  0.11405   -6.649  0.22214  116.209
      5.69375 0.70995  100.517  2.53181   -2.082  0.11474   -7.238  0.22353  115.096
       5.7385 0.71080   99.490  2.51099   -2.931  0.11516   -7.723  0.22552  114.332
      5.78325 0.71144   98.851  2.48935   -3.702  0.11593   -8.263  0.22730  113.417
       5.8280 0.71319   97.946  2.46998   -4.468  0.11626   -8.380  0.22920  112.558
      5.87275 0.71347   97.140  2.44918   -5.298  0.11692   -8.903  0.23050  111.572
       5.9175 0.71637   96.355  2.42919   -6.129  0.11756   -9.444  0.23311  110.639
      5.96225 0.71613   95.482  2.40949   -6.981  0.11849   -9.923  0.23514  109.803
       6.0070 0.71931   94.704  2.39226   -7.713  0.11895  -10.360  0.23727  109.154
      6.05175 0.71884   93.916  2.36905   -8.553  0.11943  -10.753  0.23895  108.031
       6.0965 0.72156   93.170  2.35250   -9.300  0.11970  -11.297  0.24176  107.409
      6.14125 0.72127   92.287  2.33069  -10.153  0.12043  -11.764  0.24346  106.438
       6.1860 0.72455   91.505  2.31476  -10.931  0.12058  -12.367  0.24576  105.630
      6.23075 0.72611   90.803  2.29684  -11.766  0.12123  -12.623  0.24823  104.665
       6.2755 0.72679   89.999  2.27675  -12.526  0.12205  -13.046  0.25010  103.846
      6.32025 0.72867   89.166  2.25997  -13.382  0.12282  -13.772  0.25304  103.030
       6.3650 0.73069   88.519  2.24319  -14.095  0.12285  -14.218  0.25448  102.157
      6.40975 0.73079   87.709  2.22250  -14.933  0.12326  -14.698  0.25770  101.321
       6.4545 0.73343   87.012  2.20621  -15.688  0.12433  -15.063  0.25895  100.656
      6.49925 0.73512   86.031  2.18637  -16.535  0.12453  -15.664  0.26114   99.666
       6.5440 0.73571   85.400  2.17189  -17.336  0.12515  -15.824  0.26386   98.857
      6.58875 0.73797   84.639  2.15483  -18.072  0.12557  -16.563  0.26546   98.193
       6.6335 0.73969   83.863  2.13945  -18.929  0.12621  -17.119  0.26856   97.205
      6.67825 0.74136   83.159  2.12378  -19.702  0.12693  -17.434  0.27160   96.727
       6.7230 0.74199   82.335  2.10540  -20.451  0.12706  -17.985  0.27289   95.714
      6.76775 0.74434   81.593  2.08920  -21.285  0.12758  -18.420  0.27559   94.895
       6.8125 0.74551   80.920  2.07355  -22.035  0.12766  -18.875  0.27747   94.127
      6.85725 0.74625   80.072  2.05576  -22.886  0.12867  -19.492  0.27973   93.349
       6.9020 0.74875   79.384  2.04088  -23.599  0.12882  -19.891  0.28227   92.600
      6.94675 0.74934   78.680  2.02508  -24.346  0.12931  -20.208  0.28429   91.954
       6.9915 0.75056   77.953  2.00975  -25.128  0.12951  -20.727  0.28726   90.923
      7.03625 0.75169   77.181  1.99359  -25.878  0.13032  -21.197  0.28944   90.507
       7.0810 0.75238   76.449  1.97810  -26.704  0.13089  -21.895  0.29223   89.496
      7.12575 0.75517   75.876  1.96370  -27.375  0.13138  -22.322  0.29443   88.854
       7.1705 0.75678   75.092  1.95088  -28.180  0.13134  -22.741  0.29706   88.032
      7.21525 0.75811   74.368  1.93533  -28.936  0.13206  -23.146  0.29915   87.377
       7.2600 0.75960   73.646  1.91977  -29.750  0.13260  -23.700  0.30222   86.599
      7.30475 0.76053   73.019  1.90493  -30.442  0.13222  -24.065  0.30414   85.765
       7.3495 0.76286   72.245  1.89252  -31.258  0.13342  -24.594  0.30783   85.251
      7.39425 0.76262   71.579  1.87733  -31.954  0.13373  -25.069  0.30923   84.453
       7.4390 0.76493   70.801  1.86191  -32.760  0.13396  -25.597  0.31257   83.592
      7.48375 0.76679   70.149  1.84997  -33.470  0.13446  -26.206  0.31491   82.871
       7.5285 0.76646   69.454  1.83681  -34.210  0.13451  -26.466  0.31764   82.264
      7.57325 0.76940   68.837  1.82340  -34.974  0.13552  -27.136  0.32067   81.565
       7.6180 0.77039   68.079  1.80972  -35.758  0.13561  -27.451  0.32302   80.807
      7.66275 0.77241   67.472  1.79651  -36.453  0.13590  -28.071  0.32588   80.028
       7.7075 0.77345   66.628  1.78354  -37.280  0.13646  -28.301  0.32849   79.481
      7.75225 0.77544   66.089  1.77126  -37.914  0.13665  -28.937  0.33058   78.687
       7.7970 0.77720   65.322  1.75874  -38.769  0.13717  -29.327  0.33467   78.009
      7.84175 0.77749   64.734  1.74656  -39.463  0.13733  -29.815  0.33606   77.208
       7.8865 0.78043   63.977  1.73463  -40.192  0.13803  -30.349  0.33893   76.471
      7.93125 0.78162   63.320  1.72050  -41.015  0.13834  -30.788  0.34200   75.987
       7.9760 0.78268   62.579  1.70860  -41.782  0.13870  -31.355  0.34312   75.316
      8.02075 0.78513   62.037  1.69807  -42.524  0.13951  -31.813  0.34870   74.527
       8.0655 0.78729   61.271  1.68491  -43.245  0.13948  -32.225  0.34979   73.988
      8.11025 0.78785   60.626  1.67342  -44.000  0.14029  -32.919  0.35248   73.052
       8.1550 0.78944   59.987  1.66069  -44.718  0.14035  -33.402  0.35523   72.527
      8.19975 0.79188   59.168  1.64993  -45.562  0.14058  -34.032  0.35833   71.870
       8.2445 0.79379   58.642  1.63635  -46.240  0.14062  -34.395  0.36054   71.110
      8.28925 0.79379   57.880  1.62561  -46.944  0.14110  -34.852  0.36412   70.598
       8.3340 0.79565   57.310  1.61314  -47.660  0.14153  -35.348  0.36592   69.844
      8.37875 0.79682   56.592  1.60090  -48.454  0.14204  -35.728  0.36961   69.241
       8.4235 0.79949   55.932  1.59018  -49.211  0.14254  -36.256  0.37107   68.461
      8.46825 0.80050   55.283  1.57919  -49.911  0.14288  -36.905  0.37546   67.924
       8.5130 0.80155   54.665  1.56568  -50.685  0.14291  -37.464  0.37838   67.137
      8.55775 0.80287   53.914  1.55465  -51.402  0.14340  -37.969  0.38082   66.518
       8.6025 0.80445   53.320  1.54403  -52.145  0.14328  -38.497  0.38386   65.865
      8.64725 0.80606   52.602  1.53213  -52.901  0.14398  -38.856  0.38620   65.323
       8.6920 0.80758   52.089  1.52184  -53.663  0.14452  -39.428  0.38976   64.533
      8.73675 0.80923   51.261  1.51081  -54.336  0.14435  -39.871  0.39231   63.935
       8.7815 0.81112   50.762  1.50107  -55.044  0.14480  -40.553  0.39542   63.228
      8.82625 0.81207   50.000  1.48892  -55.826  0.14483  -40.948  0.39859   62.675
       8.8710 0.81413   49.429  1.47975  -56.492  0.14472  -41.536  0.40059   61.841
      8.91575 0.81489   48.833  1.46697  -57.157  0.14556  -41.924  0.40354   61.262
       8.9605 0.81598   48.139  1.45855  -57.907  0.14527  -42.462  0.40680   60.658
      9.00525 0.81903   47.600  1.44787  -58.640  0.14540  -42.767  0.40884   59.923
       9.0500 0.81809   46.909  1.43545  -59.275  0.14615  -43.580  0.41261   59.220
      9.09475 0.82179   46.227  1.42730  -60.093  0.14623  -44.137  0.41564   58.685
       9.1395 0.82258   45.623  1.41877  -60.829  0.14611  -44.725  0.41938   57.984
      9.18425 0.82413   44.905  1.40770  -61.533  0.14656  -45.259  0.42161   57.408
       9.2290 0.82620   44.322  1.39786  -62.247  0.14642  -45.774  0.42495   56.722
      9.27375 0.82782   43.711  1.38909  -62.962  0.14679  -46.208  0.42767   56.042
       9.3185 0.83060   43.035  1.37956  -63.650  0.14713  -46.807  0.43194   55.522
      9.36325 0.83040   42.447  1.36903  -64.435  0.14699  -47.153  0.43309   54.699
       9.4080 0.83287   41.688  1.36047  -65.218  0.14722  -47.754  0.43676   54.157
      9.45275 0.83474   41.093  1.35221  -65.888  0.14725  -48.152  0.43876   53.439
       9.4975 0.83507   40.478  1.34188  -66.623  0.14793  -48.575  0.44228   52.976
      9.54225 0.83790   39.793  1.33263  -67.388  0.14770  -49.352  0.44476   52.269
       9.5870 0.83858   39.212  1.32351  -68.058  0.14844  -49.709  0.44731   51.641
      9.63175 0.83892   38.630  1.31350  -68.759  0.14791  -50.124  0.45069   51.038
       9.6765 0.84172   37.931  1.30535  -69.475  0.14867  -50.716  0.45311   50.392
      9.72125 0.84237   37.398  1.29590  -70.198  0.14870  -51.356  0.45617   49.684
       9.7660 0.84524   36.687  1.28702  -70.948  0.14877  -51.728  0.45865   49.299
      9.81075 0.84614   36.109  1.27800  -71.656  0.14872  -52.355  0.46212   48.568
       9.8555 0.84786   35.420  1.26995  -72.303  0.14922  -52.836  0.46433   48.020
      9.90025 0.84832   34.917  1.25984  -73.051  0.14928  -53.434  0.46782   47.273
       9.9450 0.84935   34.240  1.25060  -73.740  0.14899  -53.941  0.47097   46.745
      9.98975 0.85024   33.640  1.24196  -74.501  0.14909  -54.422  0.47375   46.100
      10.0345 0.85254   33.078  1.23433  -75.140  0.14965  -54.842  0.47649   45.531
     10.07925 0.85265   32.427  1.22576  -75.855  0.14918  -55.509  0.47969   44.983
      10.1240 0.85500   31.923  1.21569  -76.603  0.14985  -55.995  0.48213   44.334
     10.16875 0.85568   31.182  1.20864  -77.220  0.14972  -56.511  0.48484   43.673
      10.2135 0.85757   30.654  1.20057  -77.984  0.14948  -57.117  0.48779   43.044
     10.25825 0.85834   30.003  1.19170  -78.701  0.14995  -57.567  0.49054   42.465
      10.3030 0.85986   29.440  1.18323  -79.415  0.15019  -57.897  0.49402   41.966
     10.34775 0.86221   28.877  1.17591  -80.009  0.15005  -58.628  0.49629   41.343
      10.3925 0.86225   28.188  1.16767  -80.766  0.15008  -59.045  0.49913   40.728
     10.43725 0.86355   27.652  1.15967  -81.426  0.15020  -59.608  0.50108   40.151
