! Data provided by Modelithics, Inc.  Tampa, Florida USA, June 2008
!Model SAV-541+
!VAR V_out= 2
!VAR I_out= 40
!VAR V_in= 0.4264
!VAR I_in= 0.9639
!BEGIN ACDATA
# GHZ S MA R 50
! Scattering Parameters
!% F n11x n11y n21x n21y n12x n12y n22x n22y
       0.1000 0.99853  -17.015  25.04694  169.309  0.01013   83.660  0.51617  -14.719
      0.14475 0.97648  -23.858  24.13800  164.127  0.01282   78.066  0.51698  -18.264
       0.1895 0.96545  -31.193  23.83018  159.506  0.01661   73.638  0.50572  -23.689
      0.23425 0.95161  -38.344  23.39017  154.994  0.01971   69.819  0.49134  -29.850
       0.2790 0.93392  -44.753  22.71777  150.380  0.02356   64.862  0.47480  -34.783
      0.32375 0.92553  -52.248  22.21134  146.356  0.02659   65.411  0.46703  -40.187
       0.3685 0.90206  -58.332  21.48007  142.250  0.02850   61.466  0.44998  -45.229
      0.41325 0.89138  -64.293  20.78668  138.474  0.03164   59.159  0.43862  -50.670
       0.4580 0.87752  -69.605  20.03872  135.291  0.03293   56.652  0.42562  -53.820
      0.50275 0.86203  -75.676  19.37221  131.746  0.03631   53.549  0.41259  -59.092
       0.5475 0.84715  -80.416  18.67532  128.672  0.03708   51.786  0.39978  -62.539
      0.59225 0.82861  -85.453  17.93755  125.711  0.03993   50.493  0.38422  -66.084
       0.6370 0.81874  -90.157  17.33737  122.816  0.04064   47.609  0.37731  -70.370
      0.68175 0.80692  -94.546  16.70533  120.146  0.04281   46.101  0.36437  -73.950
       0.7265 0.79374  -98.906  16.10249  117.610  0.04372   44.585  0.35205  -77.451
      0.77125 0.78332 -102.685  15.53176  115.183  0.04542   43.739  0.34006  -80.426
       0.8160 0.77196 -106.835  14.97897  112.826  0.04632   43.005  0.32867  -83.744
      0.86075 0.76285 -110.610  14.47261  110.592  0.04689   41.090  0.31946  -87.073
       0.9055 0.75232 -113.713  13.98872  108.541  0.04772   40.071  0.31167  -89.558
      0.95025 0.74695 -117.574  13.52746  106.421  0.04904   39.093  0.30294  -92.885
       0.9950 0.73692 -120.753  13.07466  104.532  0.05028   38.013  0.29413  -95.458
      1.03975 0.73192 -123.925  12.67064  102.641  0.05131   37.460  0.28765  -98.551
       1.0845 0.72449 -126.891  12.25867  100.773  0.05159   36.113  0.28041 -100.961
      1.12925 0.71820 -129.681  11.89769   99.163  0.05265   35.872  0.27228 -103.562
       1.1740 0.71458 -132.593  11.53217   97.428  0.05340   34.719  0.26593 -105.948
      1.21875 0.70779 -135.231  11.20081   95.756  0.05422   34.218  0.26136 -108.216
       1.2635 0.70491 -137.917  10.88466   94.154  0.05486   33.417  0.25418 -110.734
      1.30825 0.70119 -140.221  10.57739   92.726  0.05546   33.160  0.24946 -113.145
       1.3530 0.69559 -142.757  10.28089   91.172  0.05602   32.554  0.24459 -115.334
      1.39775 0.69372 -145.073  10.01528   89.737  0.05676   31.910  0.23910 -117.809
       1.4425 0.68835 -147.404  9.74868   88.276  0.05736   31.247  0.23667 -119.887
      1.48725 0.68514 -149.605  9.49909   86.913  0.05845   31.036  0.23142 -121.646
       1.5320 0.68282 -151.712  9.25990   85.511  0.05864   30.428  0.22758 -124.203
      1.57675 0.67933 -153.762  9.03362   84.196  0.05932   29.854  0.22463 -126.179
       1.6215 0.67865 -155.820  8.81325   82.894  0.05993   29.742  0.22232 -128.206
      1.66625 0.67447 -157.761  8.59407   81.626  0.06046   29.207  0.21829 -130.596
       1.7110 0.67432 -159.689  8.40698   80.342  0.06128   28.731  0.21519 -132.466
      1.75575 0.67174 -161.546  8.21279   79.136  0.06170   28.285  0.21203 -134.398
       1.8005 0.66787 -163.387  8.02700   77.902  0.06256   27.929  0.21014 -136.201
      1.84525 0.66946 -165.260  7.86061   76.697  0.06266   27.561  0.20739 -138.104
       1.8900 0.66525 -166.914  7.68894   75.522  0.06373   27.257  0.20483 -140.005
      1.93475 0.66472 -168.795  7.52520   74.327  0.06402   26.950  0.20246 -141.763
       1.9795 0.66345 -170.235  7.36683   73.270  0.06519   26.648  0.20010 -143.850
      2.02425 0.66254 -171.973  7.22133   72.094  0.06530   26.020  0.19839 -145.567
       2.0690 0.66016 -173.579  7.06680   71.013  0.06606   25.996  0.19703 -147.104
      2.11375 0.66025 -175.197  6.93896   69.875  0.06646   25.612  0.19426 -149.045
       2.1585 0.66042 -176.637  6.80645   68.819  0.06739   25.212  0.19380 -150.944
      2.20325 0.65848 -178.109  6.67667   67.766  0.06804   24.739  0.19150 -152.587
       2.2480 0.65735 -179.686  6.55109   66.737  0.06832   24.405  0.18978 -154.146
      2.29275 0.65747  178.853  6.42939   65.568  0.06907   24.266  0.18893 -155.945
       2.3375 0.65672  177.418  6.31360   64.646  0.06970   23.808  0.18716 -157.569
      2.38225 0.65611  175.981  6.19944   63.506  0.07025   23.500  0.18666 -159.011
       2.4270 0.65760  174.546  6.09410   62.578  0.07102   23.182  0.18476 -161.049
      2.47175 0.65548  173.250  5.98568   61.491  0.07142   23.134  0.18414 -162.318
       2.5165 0.65691  171.770  5.89086   60.533  0.07211   22.549  0.18274 -164.131
      2.56125 0.65529  170.541  5.79296   59.495  0.07285   22.333  0.18257 -165.636
       2.6060 0.65506  169.125  5.69786   58.530  0.07334   22.227  0.18194 -167.067
      2.65075 0.65528  167.917  5.60274   57.519  0.07389   21.567  0.18099 -168.684
       2.6955 0.65462  166.657  5.51657   56.599  0.07432   21.100  0.18035 -170.205
      2.74025 0.65559  165.219  5.42978   55.559  0.07497   20.631  0.18025 -171.832
       2.7850 0.65538  164.081  5.34386   54.711  0.07581   20.745  0.17901 -173.308
      2.82975 0.65422  162.773  5.26424   53.689  0.07637   20.398  0.17838 -174.530
       2.8745 0.65374  161.448  5.19059   52.715  0.07696   19.903  0.17940 -176.069
      2.91925 0.65408  160.515  5.10604   51.825  0.07782   19.590  0.17767 -177.392
       2.9640 0.65360  159.165  5.03401   50.864  0.07803   19.201  0.17843 -178.899
      3.00875 0.65412  157.932  4.96308   49.942  0.07895   19.026  0.17841  179.524
       3.0535 0.65437  156.801  4.89672   49.003  0.07979   18.588  0.17840  178.244
      3.09825 0.65384  155.584  4.82009   48.047  0.08024   18.507  0.17830  176.657
       3.1430 0.65542  154.527  4.76333   47.148  0.08132   18.019  0.17825  175.565
      3.18775 0.65386  153.337  4.68810   46.236  0.08150   17.548  0.17828  174.132
       3.2325 0.65560  152.154  4.63422   45.284  0.08230   17.508  0.17934  172.221
      3.27725 0.65612  151.060  4.56809   44.388  0.08276   16.963  0.17831  171.426
       3.3220 0.65611  149.999  4.51039   43.497  0.08346   16.486  0.17949  169.577
      3.36675 0.65558  148.807  4.44694   42.584  0.08424   16.295  0.17907  168.589
       3.4115 0.65615  147.806  4.38963   41.709  0.08463   15.946  0.17992  167.290
      3.45625 0.65712  146.741  4.33244   40.799  0.08532   15.668  0.18044  165.694
       3.5010 0.65897  145.618  4.28527   39.930  0.08594   15.025  0.18096  164.666
      3.54575 0.65821  144.484  4.22631   38.994  0.08681   14.837  0.18042  162.998
       3.5905 0.65908  143.438  4.17681   38.089  0.08737   14.450  0.18222  161.793
      3.63525 0.65968  142.376  4.12758   37.201  0.08777   13.862  0.18185  160.581
       3.6800 0.66054  141.369  4.07690   36.186  0.08846   13.642  0.18225  159.274
      3.72475 0.66161  140.233  4.02881   35.210  0.08907   13.277  0.18286  157.964
       3.7695 0.66164  139.260  3.98158   34.408  0.08982   12.798  0.18320  156.840
      3.81425 0.66235  138.294  3.93319   33.563  0.09043   12.370  0.18420  155.379
       3.8590 0.66296  137.092  3.88678   32.650  0.09146   12.275  0.18446  154.138
      3.90375 0.66379  136.214  3.84121   31.802  0.09170   11.869  0.18567  152.862
       3.9485 0.66370  135.173  3.79972   30.964  0.09226   11.494  0.18598  151.753
      3.99325 0.66615  134.153  3.75828   30.051  0.09338   11.096  0.18655  150.205
       4.0380 0.66545  133.207  3.71547   29.216  0.09417   10.673  0.18825  149.547
      4.08275 0.66676  132.250  3.67533   28.346  0.09495   10.219  0.18782  148.316
       4.1275 0.66727  131.200  3.63810   27.462  0.09523   10.020  0.18922  147.051
      4.17225 0.66822  130.212  3.59831   26.579  0.09513    9.655  0.19027  145.926
       4.2170 0.66864  129.268  3.55629   25.724  0.09581    9.242  0.19094  144.619
      4.26175 0.66891  128.295  3.51985   24.908  0.09672    8.773  0.19326  143.547
       4.3065 0.67093  127.283  3.48296   24.015  0.09719    8.308  0.19351  142.516
      4.35125 0.67039  126.364  3.44730   23.185  0.09804    8.019  0.19564  141.196
       4.3960 0.67155  125.464  3.40843   22.343  0.09845    7.404  0.19591  140.116
      4.44075 0.67318  124.498  3.37511   21.466  0.09921    7.056  0.19687  138.933
       4.4855 0.67526  123.571  3.34081   20.606  0.09978    6.553  0.19788  137.913
      4.53025 0.67355  122.608  3.30703   19.756  0.10057    6.237  0.19966  136.980
       4.5750 0.67491  121.674  3.27252   18.908  0.10109    5.754  0.20071  135.726
      4.61975 0.67692  120.672  3.24604   18.112  0.10210    5.521  0.20282  134.782
       4.6645 0.67793  119.870  3.21099   17.231  0.10264    4.868  0.20342  133.617
      4.70925 0.67894  118.960  3.18043   16.416  0.10316    4.347  0.20521  132.306
       4.7540 0.68002  117.992  3.14894   15.562  0.10371    4.138  0.20610  131.443
      4.79875 0.68090  117.160  3.11792   14.769  0.10468    3.615  0.20749  130.509
       4.8435 0.68115  116.307  3.08679   13.940  0.10497    3.237  0.20956  129.475
      4.88825 0.68424  115.333  3.06109   13.070  0.10552    2.767  0.21053  128.432
       4.9330 0.68497  114.509  3.03064   12.243  0.10619    2.163  0.21220  127.240
      4.97775 0.68582  113.537  3.00354   11.425  0.10679    2.032  0.21348  126.415
       5.0225 0.68597  112.617  2.97402   10.568  0.10743    1.354  0.21494  125.229
      5.06725 0.68920  111.790  2.94791    9.795  0.10833    0.838  0.21702  124.374
       5.1120 0.68815  110.984  2.92075    8.945  0.10870    0.401  0.21816  123.351
      5.15675 0.69040  109.971  2.89258    8.085  0.10929    0.049  0.22010  122.466
       5.2015 0.69189  109.208  2.87004    7.236  0.10993   -0.436  0.22193  121.521
      5.24625 0.69316  108.268  2.84394    6.428  0.11042   -0.650  0.22271  120.373
       5.2910 0.69465  107.387  2.81580    5.587  0.11101   -1.315  0.22514  119.406
      5.33575 0.69550  106.543  2.79374    4.799  0.11167   -1.937  0.22646  118.596
       5.3805 0.69766  105.760  2.76906    4.003  0.11241   -2.348  0.22846  117.729
      5.42525 0.69799  104.853  2.73984    3.177  0.11308   -2.714  0.23017  116.723
       5.4700 0.69895  104.076  2.71989    2.343  0.11392   -2.925  0.23185  115.749
      5.51475 0.70078  103.168  2.69445    1.505  0.11447   -3.745  0.23420  114.890
       5.5595 0.70172  102.345  2.67090    0.749  0.11475   -4.227  0.23601  114.045
      5.60425 0.70294  101.576  2.64827   -0.113  0.11544   -4.527  0.23780  112.883
       5.6490 0.70380  100.657  2.62227   -0.878  0.11613   -4.875  0.24010  112.225
      5.69375 0.70511  100.018  2.60020   -1.656  0.11646   -5.515  0.24117  111.016
       5.7385 0.70635   99.019  2.57925   -2.548  0.11721   -5.974  0.24300  110.264
      5.78325 0.70712   98.391  2.55748   -3.272  0.11739   -6.365  0.24516  109.369
       5.8280 0.70910   97.450  2.53801   -4.042  0.11881   -6.985  0.24676  108.706
      5.87275 0.71013   96.729  2.51834   -4.839  0.11843   -7.277  0.24844  107.815
       5.9175 0.71228   95.912  2.49683   -5.684  0.11906   -8.006  0.25072  106.812
      5.96225 0.71266   95.061  2.47585   -6.503  0.12026   -8.295  0.25320  105.983
       6.0070 0.71547   94.307  2.45728   -7.240  0.12103   -8.919  0.25469  105.472
      6.05175 0.71539   93.509  2.43436   -8.072  0.12123   -9.208  0.25732  104.277
       6.0965 0.71826   92.713  2.41737   -8.830  0.12185   -9.637  0.25951  103.751
      6.14125 0.71808   91.912  2.39441   -9.652  0.12248  -10.250  0.26092  102.732
       6.1860 0.72095   91.086  2.37769  -10.455  0.12269  -10.626  0.26315  101.987
      6.23075 0.72233   90.402  2.36062  -11.248  0.12332  -11.339  0.26665  101.133
       6.2755 0.72242   89.715  2.33839  -11.985  0.12450  -11.410  0.26811  100.435
      6.32025 0.72454   88.822  2.32045  -12.839  0.12470  -12.333  0.27089   99.659
       6.3650 0.72595   88.128  2.30232  -13.569  0.12509  -12.728  0.27219   98.802
      6.40975 0.72731   87.349  2.28337  -14.397  0.12593  -13.249  0.27476   98.063
       6.4545 0.72954   86.587  2.26587  -15.140  0.12628  -13.742  0.27730   97.361
      6.49925 0.73148   85.751  2.24688  -15.937  0.12675  -14.329  0.27895   96.435
       6.5440 0.73266   85.059  2.23110  -16.753  0.12724  -14.729  0.28190   95.605
      6.58875 0.73401   84.318  2.21419  -17.472  0.12764  -14.920  0.28390   95.082
       6.6335 0.73642   83.529  2.19719  -18.311  0.12822  -15.818  0.28630   94.048
      6.67825 0.73700   82.815  2.17991  -19.088  0.12925  -16.138  0.28930   93.503
       6.7230 0.73789   82.041  2.16198  -19.843  0.12912  -16.662  0.29057   92.649
      6.76775 0.74067   81.282  2.14541  -20.669  0.12970  -17.157  0.29359   91.816
       6.8125 0.74160   80.632  2.12938  -21.411  0.13014  -17.804  0.29566   91.128
      6.85725 0.74303   79.778  2.11228  -22.207  0.13050  -18.131  0.29736   90.301
       6.9020 0.74516   79.112  2.09551  -22.959  0.13158  -18.787  0.29999   89.686
      6.94675 0.74636   78.394  2.07969  -23.699  0.13183  -19.259  0.30223   88.934
       6.9915 0.74744   77.584  2.06322  -24.489  0.13231  -19.678  0.30525   88.006
      7.03625 0.74864   76.982  2.04898  -25.194  0.13264  -20.223  0.30732   87.546
       7.0810 0.75000   76.208  2.03164  -26.056  0.13300  -20.652  0.31022   86.573
      7.12575 0.75148   75.537  2.01603  -26.704  0.13332  -21.056  0.31224   85.962
       7.1705 0.75393   74.830  2.00342  -27.518  0.13394  -21.692  0.31487   85.221
      7.21525 0.75517   74.002  1.98654  -28.272  0.13434  -22.171  0.31683   84.485
       7.2600 0.75586   73.411  1.97101  -29.051  0.13481  -22.633  0.31996   83.763
      7.30475 0.75749   72.761  1.95631  -29.736  0.13531  -23.133  0.32188   83.029
       7.3495 0.75933   72.016  1.94383  -30.520  0.13596  -23.511  0.32522   82.455
      7.39425 0.75958   71.363  1.92767  -31.202  0.13583  -24.084  0.32692   81.628
       7.4390 0.76204   70.590  1.91298  -31.982  0.13649  -24.659  0.33053   80.835
      7.48375 0.76389   69.949  1.89968  -32.715  0.13683  -25.009  0.33189   80.224
       7.5285 0.76392   69.284  1.88695  -33.455  0.13723  -25.498  0.33466   79.548
      7.57325 0.76621   68.620  1.87077  -34.242  0.13755  -26.186  0.33821   78.842
       7.6180 0.76734   67.882  1.85736  -34.940  0.13797  -26.577  0.34025   78.203
      7.66275 0.76898   67.271  1.84511  -35.658  0.13847  -26.988  0.34304   77.409
       7.7075 0.77103   66.489  1.83130  -36.463  0.13902  -27.631  0.34548   76.855
      7.75225 0.77333   65.934  1.81925  -37.085  0.13937  -28.053  0.34792   76.079
       7.7970 0.77464   65.162  1.80557  -37.925  0.13977  -28.474  0.35100   75.447
      7.84175 0.77486   64.600  1.79230  -38.645  0.14010  -29.030  0.35343   74.624
       7.8865 0.77730   63.815  1.77987  -39.380  0.14100  -29.608  0.35653   73.964
      7.93125 0.77861   63.189  1.76611  -40.149  0.14102  -30.167  0.35925   73.475
       7.9760 0.78095   62.377  1.75395  -40.951  0.14155  -30.446  0.36003   72.745
      8.02075 0.78202   61.793  1.74314  -41.653  0.14165  -31.175  0.36537   72.043
       8.0655 0.78427   61.124  1.72955  -42.360  0.14193  -31.602  0.36685   71.474
      8.11025 0.78532   60.465  1.71751  -43.116  0.14237  -32.172  0.36955   70.694
       8.1550 0.78660   59.835  1.70454  -43.819  0.14311  -32.631  0.37226   70.082
      8.19975 0.78922   59.023  1.69312  -44.663  0.14322  -33.219  0.37485   69.477
       8.2445 0.79082   58.467  1.67966  -45.312  0.14355  -33.639  0.37708   68.717
      8.28925 0.79145   57.752  1.66842  -46.055  0.14394  -34.188  0.38076   68.200
       8.3340 0.79304   57.190  1.65574  -46.749  0.14432  -34.665  0.38255   67.500
      8.37875 0.79385   56.445  1.64230  -47.540  0.14490  -35.293  0.38657   66.905
       8.4235 0.79640   55.748  1.63104  -48.268  0.14458  -35.833  0.38793   66.058
      8.46825 0.79741   55.174  1.62013  -48.982  0.14538  -36.301  0.39196   65.558
       8.5130 0.79898   54.529  1.60672  -49.711  0.14535  -36.847  0.39453   64.809
      8.55775 0.80039   53.760  1.59484  -50.454  0.14566  -37.412  0.39734   64.128
       8.6025 0.80162   53.224  1.58415  -51.156  0.14585  -37.978  0.40001   63.511
      8.64725 0.80423   52.468  1.57194  -51.932  0.14600  -38.422  0.40241   62.970
       8.6920 0.80517   51.995  1.56190  -52.635  0.14699  -38.865  0.40606   62.264
      8.73675 0.80625   51.188  1.54941  -53.321  0.14657  -39.389  0.40862   61.724
       8.7815 0.80903   50.658  1.54059  -54.056  0.14703  -40.072  0.41147   60.983
      8.82625 0.80972   49.874  1.52829  -54.816  0.14713  -40.454  0.41435   60.398
       8.8710 0.81184   49.328  1.51830  -55.490  0.14733  -41.014  0.41666   59.625
      8.91575 0.81257   48.709  1.50585  -56.155  0.14742  -41.458  0.41925   59.002
       8.9605 0.81425   48.078  1.49729  -56.883  0.14803  -42.063  0.42287   58.448
      9.00525 0.81681   47.515  1.48573  -57.584  0.14841  -42.472  0.42484   57.723
       9.0500 0.81657   46.810  1.47338  -58.233  0.14826  -43.054  0.42844   57.049
      9.09475 0.81971   46.106  1.46412  -59.085  0.14863  -43.601  0.43131   56.566
       9.1395 0.82016   45.549  1.45528  -59.769  0.14846  -44.305  0.43482   55.859
      9.18425 0.82224   44.852  1.44407  -60.463  0.14881  -44.741  0.43699   55.257
       9.2290 0.82442   44.269  1.43444  -61.153  0.14907  -45.229  0.44001   54.635
      9.27375 0.82552   43.668  1.42553  -61.884  0.14873  -45.761  0.44283   53.990
       9.3185 0.82834   42.972  1.41553  -62.543  0.14974  -46.538  0.44680   53.420
      9.36325 0.82824   42.379  1.40472  -63.332  0.14940  -46.689  0.44824   52.671
       9.4080 0.83070   41.602  1.39685  -64.132  0.14967  -47.505  0.45170   52.078
      9.45275 0.83249   41.052  1.38682  -64.734  0.14953  -47.957  0.45372   51.380
       9.4975 0.83328   40.416  1.37762  -65.487  0.15012  -48.360  0.45716   50.912
      9.54225 0.83623   39.749  1.36766  -66.252  0.15002  -48.921  0.45962   50.262
       9.5870 0.83700   39.169  1.35888  -66.936  0.15058  -49.521  0.46242   49.657
      9.63175 0.83709   38.545  1.34800  -67.583  0.15004  -49.974  0.46542   49.025
       9.6765 0.83959   37.892  1.33893  -68.334  0.15054  -50.473  0.46776   48.435
      9.72125 0.84048   37.323  1.33032  -69.047  0.15105  -51.001  0.47123   47.721
       9.7660 0.84288   36.618  1.32020  -69.813  0.15093  -51.463  0.47284   47.299
      9.81075 0.84366   36.091  1.31192  -70.403  0.15119  -52.064  0.47614   46.684
       9.8555 0.84622   35.387  1.30326  -71.143  0.15141  -52.624  0.47912   46.062
      9.90025 0.84635   34.861  1.29297  -71.859  0.15121  -53.036  0.48164   45.358
       9.9450 0.84716   34.208  1.28336  -72.511  0.15119  -53.665  0.48486   44.764
      9.98975 0.84892   33.590  1.27440  -73.275  0.15084  -54.147  0.48743   44.219
      10.0345 0.85119   33.032  1.26727  -73.896  0.15180  -54.572  0.49012   43.580
     10.07925 0.85026   32.427  1.25734  -74.601  0.15117  -55.116  0.49343   43.058
      10.1240 0.85323   31.880  1.24853  -75.360  0.15165  -55.623  0.49557   42.412
     10.16875 0.85383   31.170  1.24040  -75.984  0.15160  -56.266  0.49885   41.811
      10.2135 0.85553   30.645  1.23164  -76.759  0.15148  -56.770  0.50152   41.199
     10.25825 0.85609   29.926  1.22293  -77.426  0.15165  -57.175  0.50374   40.629
      10.3030 0.85813   29.430  1.21468  -78.106  0.15170  -57.858  0.50695   40.066
     10.34775 0.85997   28.840  1.20714  -78.743  0.15220  -58.307  0.50954   39.478
      10.3925 0.86039   28.204  1.19820  -79.461  0.15168  -58.816  0.51116   38.922
     10.43725 0.86217   27.637  1.19074  -80.134  0.15205  -59.503  0.51412   38.279
