! Data provided by Modelithics, Inc.  Tampa, Florida USA, June 2008
!Model SAV-541+
!VAR V_out= 4
!VAR I_out= 40
!VAR V_in= 0.3903
!VAR I_in= 0.9034
!BEGIN ACDATA
# GHZ S MA R 50
! Scattering Parameters
!% F n11x n11y n21x n21y n12x n12y n22x n22y
       0.1000 0.99441  -16.885  25.18475  169.344  0.00888   82.478  0.56443  -12.911
      0.14475 0.97684  -23.391  24.28695  164.202  0.01215   76.461  0.55883  -16.747
       0.1895 0.96465  -30.699  23.98491  159.607  0.01544   74.179  0.54641  -21.537
      0.23425 0.95219  -37.844  23.56871  155.141  0.01915   70.024  0.53105  -26.856
       0.2790 0.92915  -43.969  22.88504  150.628  0.02106   70.236  0.52078  -31.409
      0.32375 0.92584  -51.346  22.37288  146.646  0.02581   63.274  0.50546  -36.412
       0.3685 0.90384  -57.508  21.66019  142.506  0.02738   61.212  0.48595  -40.581
      0.41325 0.89219  -63.386  20.95662  138.812  0.03026   58.416  0.47112  -45.428
       0.4580 0.87942  -68.714  20.22582  135.591  0.03192   55.229  0.45864  -48.423
      0.50275 0.86466  -74.617  19.55740  132.091  0.03439   55.233  0.44199  -53.169
       0.5475 0.84700  -79.238  18.85979  129.053  0.03649   52.090  0.42820  -56.151
      0.59225 0.82877  -84.317  18.13819  126.078  0.03774   50.475  0.41148  -59.180
       0.6370 0.81770  -89.012  17.52775  123.173  0.03972   47.993  0.40191  -62.885
      0.68175 0.80724  -93.419  16.90469  120.551  0.04085   46.177  0.38765  -65.982
       0.7265 0.79416  -97.715  16.29423  117.977  0.04205   45.111  0.37352  -69.062
      0.77125 0.78286 -101.546  15.72133  115.554  0.04375   43.661  0.36025  -71.552
       0.8160 0.77171 -105.696  15.17601  113.189  0.04437   42.786  0.34616  -74.443
      0.86075 0.76212 -109.434  14.66304  110.939  0.04540   41.114  0.33497  -77.256
       0.9055 0.75176 -112.546  14.17198  108.895  0.04590   40.343  0.32499  -79.413
      0.95025 0.74627 -116.382  13.71755  106.807  0.04727   38.922  0.31533  -82.294
       0.9950 0.73651 -119.590  13.26737  104.869  0.04829   38.068  0.30487  -84.599
      1.03975 0.73075 -122.853  12.86174  103.012  0.04863   37.254  0.29665  -87.288
       1.0845 0.72232 -125.689  12.43782  101.149  0.04993   36.566  0.28847  -89.229
      1.12925 0.71678 -128.510  12.07754   99.492  0.05052   35.663  0.27918  -91.461
       1.1740 0.71260 -131.464  11.71338   97.720  0.05115   34.948  0.27165  -93.539
      1.21875 0.70610 -134.139  11.37758   96.117  0.05167   34.668  0.26491  -95.503
       1.2635 0.70216 -136.826  11.05573   94.475  0.05251   33.894  0.25690  -97.551
      1.30825 0.69895 -139.096  10.74931   93.050  0.05302   32.930  0.25074  -99.725
       1.3530 0.69249 -141.610  10.44882   91.468  0.05405   32.755  0.24484 -101.463
      1.39775 0.68998 -143.987  10.17218   90.057  0.05446   31.813  0.23773 -103.590
       1.4425 0.68554 -146.330  9.90903   88.531  0.05510   31.577  0.23387 -105.527
      1.48725 0.68190 -148.591  9.65692   87.177  0.05559   31.210  0.22815 -107.127
       1.5320 0.67959 -150.616  9.41427   85.803  0.05640   30.636  0.22245 -109.220
      1.57675 0.67616 -152.728  9.18976   84.468  0.05682   30.234  0.21837 -110.976
       1.6215 0.67510 -154.773  8.96025   83.166  0.05783   29.834  0.21497 -112.812
      1.66625 0.67104 -156.777  8.74529   81.856  0.05791   29.306  0.20919 -114.890
       1.7110 0.67074 -158.716  8.55250   80.577  0.05888   28.865  0.20523 -116.561
      1.75575 0.66820 -160.533  8.35520   79.411  0.05881   28.736  0.20112 -118.254
       1.8005 0.66370 -162.414  8.16660   78.136  0.05968   28.159  0.19816 -119.822
      1.84525 0.66485 -164.278  7.99506   76.965  0.06017   27.954  0.19417 -121.631
       1.8900 0.66135 -165.953  7.82485   75.771  0.06065   27.516  0.19071 -123.351
      1.93475 0.66055 -167.827  7.66151   74.560  0.06126   27.063  0.18765 -124.956
       1.9795 0.65909 -169.335  7.49901   73.480  0.06187   26.863  0.18400 -126.764
      2.02425 0.65809 -171.037  7.34982   72.350  0.06263   26.339  0.18164 -128.388
       2.0690 0.65550 -172.654  7.19439   71.235  0.06292   26.025  0.17887 -129.961
      2.11375 0.65595 -174.255  7.06833   70.116  0.06344   25.888  0.17527 -131.682
       2.1585 0.65519 -175.751  6.93132   69.083  0.06400   25.439  0.17337 -133.507
      2.20325 0.65390 -177.187  6.79920   67.985  0.06467   25.397  0.17060 -135.011
       2.2480 0.65260 -178.760  6.67191   66.952  0.06534   24.817  0.16823 -136.581
      2.29275 0.65240  179.760  6.54554   65.788  0.06598   24.505  0.16643 -138.361
       2.3375 0.65237  178.323  6.43340   64.872  0.06627   24.544  0.16360 -139.846
      2.38225 0.65122  176.862  6.31538   63.724  0.06675   23.933  0.16206 -141.397
       2.4270 0.65201  175.421  6.20728   62.809  0.06763   23.612  0.15941 -143.214
      2.47175 0.65084  174.111  6.10224   61.728  0.06833   23.153  0.15859 -144.373
       2.5165 0.65130  172.645  6.00147   60.733  0.06854   22.962  0.15621 -146.068
      2.56125 0.64982  171.434  5.90339   59.698  0.06939   22.727  0.15503 -147.788
       2.6060 0.64970  169.978  5.80592   58.737  0.06955   22.664  0.15372 -149.186
      2.65075 0.64976  168.783  5.71303   57.708  0.07037   22.368  0.15196 -150.934
       2.6955 0.64989  167.465  5.62237   56.804  0.07118   21.884  0.15078 -152.438
      2.74025 0.65025  165.969  5.53627   55.734  0.07163   21.571  0.14955 -154.000
       2.7850 0.64934  164.878  5.44943   54.894  0.07233   21.143  0.14787 -155.474
      2.82975 0.64888  163.566  5.36892   53.844  0.07299   20.765  0.14692 -156.817
       2.8745 0.64884  162.263  5.29304   52.911  0.07328   20.560  0.14665 -158.455
      2.91925 0.64882  161.261  5.20865   51.988  0.07400   20.563  0.14491 -160.014
       2.9640 0.64871  159.923  5.13571   51.056  0.07481   20.011  0.14493 -161.479
      3.00875 0.64894  158.741  5.06041   50.102  0.07514   19.631  0.14394 -163.190
       3.0535 0.64893  157.504  4.99275   49.172  0.07570   19.496  0.14349 -164.723
      3.09825 0.64826  156.374  4.91695   48.209  0.07636   19.008  0.14246 -166.351
       3.1430 0.64965  155.273  4.85887   47.318  0.07723   18.536  0.14220 -167.753
      3.18775 0.64824  154.082  4.78468   46.398  0.07770   18.435  0.14189 -168.992
       3.2325 0.65002  152.976  4.72774   45.447  0.07847   18.141  0.14103 -171.015
      3.27725 0.64883  151.736  4.65649   44.499  0.07896   17.937  0.14119 -172.291
       3.3220 0.65052  150.719  4.60395   43.645  0.07945   17.303  0.14050 -174.133
      3.36675 0.64997  149.549  4.53856   42.722  0.07990   17.117  0.14022 -175.557
       3.4115 0.65028  148.583  4.47827   41.876  0.08066   16.885  0.14055 -176.892
      3.45625 0.65116  147.436  4.42307   40.910  0.08119   16.327  0.14029 -178.512
       3.5010 0.65284  146.355  4.37157   40.047  0.08204   16.070  0.14024 -179.832
      3.54575 0.65239  145.193  4.31499   39.137  0.08249   15.587  0.13976  178.326
       3.5905 0.65409  144.148  4.26443   38.258  0.08283   15.228  0.13999  176.966
      3.63525 0.65446  143.073  4.21430   37.347  0.08350   15.083  0.13985  175.337
       3.6800 0.65415  142.028  4.16121   36.481  0.08442   14.574  0.13970  174.003
      3.72475 0.65575  140.861  4.11299   35.471  0.08507   14.197  0.14030  172.497
       3.7695 0.65600  139.897  4.06634   34.524  0.08562   14.002  0.14000  171.126
      3.81425 0.65723  138.989  4.01566   33.704  0.08611   13.663  0.14048  169.426
       3.8590 0.65640  137.751  3.96980   32.769  0.08681   13.291  0.14039  168.102
      3.90375 0.65821  136.885  3.92257   31.942  0.08729   12.875  0.14078  166.642
       3.9485 0.65840  135.850  3.88261   31.080  0.08821   12.492  0.14145  165.344
      3.99325 0.65968  134.816  3.83842   30.165  0.08881   12.286  0.14123  163.589
       4.0380 0.65985  133.827  3.79828   29.306  0.08919   11.796  0.14266  162.573
      4.08275 0.66107  132.985  3.75490   28.488  0.09013   11.693  0.14144  161.370
       4.1275 0.66125  131.935  3.71667   27.606  0.09041   10.998  0.14327  159.936
      4.17225 0.66265  130.940  3.67870   26.716  0.09109   10.601  0.14414  158.444
       4.2170 0.66279  129.944  3.63548   25.855  0.09213   10.371  0.14343  157.485
      4.26175 0.66367  128.954  3.59740   25.002  0.09277    9.953  0.14582  155.671
       4.3065 0.66483  128.005  3.55986   24.143  0.09234    9.621  0.14538  154.611
      4.35125 0.66463  127.016  3.52247   23.288  0.09329    9.159  0.14744  152.935
       4.3960 0.66590  126.101  3.48632   22.427  0.09362    8.909  0.14785  151.762
      4.44075 0.66741  125.152  3.45148   21.566  0.09453    8.399  0.14757  150.548
       4.4855 0.66864  124.222  3.41465   20.721  0.09467    7.996  0.14907  148.979
      4.53025 0.66834  123.259  3.38356   19.856  0.09557    7.726  0.15043  148.039
       4.5750 0.66944  122.340  3.34619   19.018  0.09658    7.190  0.15050  146.772
      4.61975 0.67172  121.316  3.32025   18.160  0.09689    6.786  0.15285  145.106
       4.6645 0.67174  120.518  3.28241   17.313  0.09758    6.511  0.15339  144.068
      4.70925 0.67332  119.543  3.25403   16.484  0.09797    6.123  0.15487  142.863
       4.7540 0.67370  118.669  3.22175   15.652  0.09907    5.658  0.15493  141.899
      4.79875 0.67519  117.788  3.18960   14.881  0.09907    5.291  0.15691  140.568
       4.8435 0.67542  116.916  3.15797   14.012  0.10006    4.815  0.15885  139.277
      4.88825 0.67862  115.985  3.13531   13.152  0.10070    4.302  0.15929  138.175
       4.9330 0.67938  115.142  3.10203   12.324  0.10129    4.036  0.16061  136.907
      4.97775 0.67983  114.191  3.07389   11.494  0.10182    3.540  0.16184  135.856
       5.0225 0.68087  113.302  3.04551   10.641  0.10254    3.042  0.16371  134.471
      5.06725 0.68303  112.383  3.01831    9.838  0.10325    2.884  0.16568  133.376
       5.1120 0.68178  111.496  2.98886    8.957  0.10378    2.382  0.16591  132.419
      5.15675 0.68498  110.575  2.96242    8.130  0.10419    1.657  0.16839  131.260
       5.2015 0.68627  109.897  2.93835    7.324  0.10465    1.272  0.16962  130.229
      5.24625 0.68781  108.895  2.91236    6.472  0.10561    0.869  0.17069  128.991
       5.2910 0.68898  108.013  2.88346    5.622  0.10618    0.401  0.17250  127.732
      5.33575 0.68900  107.131  2.85989    4.854  0.10633    0.093  0.17384  126.787
       5.3805 0.69255  106.367  2.83760    4.041  0.10743   -0.450  0.17625  125.848
      5.42525 0.69249  105.491  2.80761    3.202  0.10738   -0.839  0.17731  124.815
       5.4700 0.69361  104.694  2.78598    2.362  0.10835   -1.163  0.17839  123.672
      5.51475 0.69488  103.829  2.76032    1.554  0.10911   -1.738  0.18099  122.698
       5.5595 0.69587  102.980  2.73809    0.794  0.10949   -2.052  0.18288  121.660
      5.60425 0.69733  102.185  2.71466   -0.081  0.11020   -2.641  0.18464  120.459
       5.6490 0.69891  101.286  2.68931   -0.865  0.11083   -3.175  0.18656  119.682
      5.69375 0.70015  100.561  2.66712   -1.687  0.11126   -3.555  0.18791  118.517
       5.7385 0.70112   99.609  2.64506   -2.534  0.11179   -3.897  0.18950  117.601
      5.78325 0.70170   98.980  2.62237   -3.270  0.11271   -4.318  0.19133  116.680
       5.8280 0.70393   98.130  2.60078   -4.035  0.11272   -4.775  0.19306  115.791
      5.87275 0.70386   97.339  2.57978   -4.838  0.11382   -5.126  0.19468  114.958
       5.9175 0.70693   96.515  2.55967   -5.704  0.11436   -5.701  0.19700  113.789
      5.96225 0.70672   95.668  2.54030   -6.535  0.11515   -6.099  0.19937  112.876
       6.0070 0.71050   94.936  2.52137   -7.268  0.11562   -6.705  0.20107  112.169
      6.05175 0.71009   94.119  2.49831   -8.081  0.11625   -7.048  0.20304  111.066
       6.0965 0.71262   93.343  2.48072   -8.849  0.11694   -7.549  0.20586  110.407
      6.14125 0.71313   92.505  2.45920   -9.686  0.11733   -8.093  0.20749  109.539
       6.1860 0.71556   91.698  2.44139  -10.509  0.11794   -8.456  0.20960  108.507
      6.23075 0.71772   91.038  2.42364  -11.289  0.11856   -8.953  0.21218  107.627
       6.2755 0.71823   90.298  2.40225  -12.034  0.11958   -9.397  0.21411  106.669
      6.32025 0.71959   89.387  2.38310  -12.924  0.11976   -9.999  0.21672  106.017
       6.3650 0.72162   88.704  2.36399  -13.649  0.12012  -10.178  0.21831  104.972
      6.40975 0.72210   87.958  2.34598  -14.460  0.12090  -10.958  0.22110  104.168
       6.4545 0.72495   87.185  2.32908  -15.254  0.12099  -11.285  0.22315  103.474
      6.49925 0.72600   86.375  2.30779  -16.005  0.12221  -11.887  0.22521  102.509
       6.5440 0.72729   85.676  2.29189  -16.828  0.12235  -12.510  0.22820  101.634
      6.58875 0.72958   84.958  2.27569  -17.583  0.12357  -12.826  0.23027  101.055
       6.6335 0.73102   84.167  2.25826  -18.420  0.12334  -13.374  0.23232   99.931
      6.67825 0.73277   83.491  2.24104  -19.200  0.12450  -13.762  0.23558   99.340
       6.7230 0.73333   82.616  2.22183  -19.957  0.12423  -14.228  0.23593   98.377
      6.76775 0.73649   81.855  2.20711  -20.794  0.12508  -14.913  0.23994   97.548
       6.8125 0.73639   81.240  2.18913  -21.520  0.12548  -15.318  0.24222   96.837
      6.85725 0.73942   80.404  2.17273  -22.386  0.12553  -15.842  0.24436   95.850
       6.9020 0.74078   79.704  2.15586  -23.123  0.12635  -16.319  0.24671   95.301
      6.94675 0.74222   79.040  2.13917  -23.864  0.12709  -16.828  0.24882   94.496
       6.9915 0.74310   78.259  2.12301  -24.627  0.12738  -17.334  0.25179   93.502
      7.03625 0.74473   77.588  2.10784  -25.389  0.12804  -17.781  0.25421   93.005
       7.0810 0.74514   76.771  2.09108  -26.229  0.12796  -18.201  0.25660   91.992
      7.12575 0.74756   76.162  2.07487  -26.891  0.12892  -18.586  0.25934   91.405
       7.1705 0.74921   75.446  2.06148  -27.706  0.12988  -19.250  0.26254   90.653
      7.21525 0.75037   74.681  2.04439  -28.456  0.13009  -19.643  0.26394   89.872
       7.2600 0.75189   74.000  2.02867  -29.225  0.13015  -19.923  0.26681   89.051
      7.30475 0.75346   73.386  2.01450  -29.957  0.13070  -20.539  0.26912   88.272
       7.3495 0.75584   72.548  2.00153  -30.800  0.13138  -21.154  0.27288   87.666
      7.39425 0.75546   71.947  1.98461  -31.464  0.13122  -21.602  0.27477   86.851
       7.4390 0.75814   71.184  1.97037  -32.242  0.13249  -22.197  0.27789   86.019
      7.48375 0.76010   70.546  1.95636  -32.982  0.13277  -22.596  0.28000   85.306
       7.5285 0.75999   69.892  1.94385  -33.714  0.13314  -22.858  0.28290   84.614
      7.57325 0.76188   69.246  1.92748  -34.466  0.13334  -23.592  0.28596   83.875
       7.6180 0.76338   68.514  1.91371  -35.221  0.13410  -24.047  0.28834   83.213
      7.66275 0.76597   67.872  1.90105  -35.978  0.13423  -24.436  0.29131   82.373
       7.7075 0.76698   67.033  1.88569  -36.795  0.13497  -25.012  0.29384   81.811
      7.75225 0.76951   66.533  1.87515  -37.423  0.13501  -25.425  0.29658   80.909
       7.7970 0.77083   65.760  1.86144  -38.261  0.13591  -25.879  0.30054   80.404
      7.84175 0.77170   65.147  1.84836  -39.001  0.13619  -26.519  0.30189   79.589
       7.8865 0.77390   64.391  1.83591  -39.760  0.13655  -26.925  0.30505   78.778
      7.93125 0.77525   63.779  1.82075  -40.502  0.13716  -27.463  0.30787   78.282
       7.9760 0.77745   63.027  1.80973  -41.277  0.13739  -28.052  0.30931   77.546
      8.02075 0.77890   62.419  1.79759  -42.040  0.13785  -28.440  0.31439   76.819
       8.0655 0.78103   61.691  1.78387  -42.754  0.13854  -29.027  0.31664   76.273
      8.11025 0.78198   61.064  1.77109  -43.539  0.13906  -29.567  0.31880   75.363
       8.1550 0.78374   60.439  1.75916  -44.219  0.13925  -29.914  0.32162   74.817
      8.19975 0.78585   59.672  1.74708  -45.062  0.13971  -30.422  0.32414   74.170
       8.2445 0.78758   59.082  1.73314  -45.782  0.13987  -31.059  0.32786   73.399
      8.28925 0.78766   58.301  1.72151  -46.519  0.14033  -31.620  0.33094   72.865
       8.3340 0.79001   57.772  1.70905  -47.227  0.14048  -31.929  0.33285   72.110
      8.37875 0.79071   57.013  1.69447  -48.015  0.14108  -32.587  0.33659   71.440
       8.4235 0.79388   56.374  1.68351  -48.755  0.14088  -32.974  0.33840   70.567
      8.46825 0.79480   55.753  1.67240  -49.474  0.14196  -33.665  0.34276   70.054
       8.5130 0.79620   55.099  1.65892  -50.246  0.14212  -34.009  0.34543   69.364
      8.55775 0.79813   54.403  1.64781  -50.961  0.14274  -34.720  0.34848   68.696
       8.6025 0.79931   53.772  1.63691  -51.695  0.14237  -35.128  0.35111   68.022
      8.64725 0.80135   53.081  1.62483  -52.464  0.14255  -35.607  0.35344   67.487
       8.6920 0.80275   52.566  1.61281  -53.199  0.14333  -36.118  0.35813   66.717
      8.73675 0.80342   51.769  1.60028  -53.898  0.14340  -36.658  0.36018   66.103
       8.7815 0.80646   51.263  1.59214  -54.622  0.14434  -37.154  0.36320   65.422
      8.82625 0.80774   50.463  1.57881  -55.369  0.14396  -37.674  0.36727   64.707
       8.8710 0.80945   49.920  1.56891  -56.063  0.14433  -38.311  0.36878   63.996
      8.91575 0.81010   49.304  1.55539  -56.761  0.14444  -38.753  0.37181   63.356
       8.9605 0.81173   48.615  1.54662  -57.509  0.14528  -39.316  0.37549   62.792
      9.00525 0.81519   48.086  1.53575  -58.195  0.14513  -39.750  0.37735   62.022
       9.0500 0.81460   47.380  1.52261  -58.905  0.14540  -40.365  0.38155   61.290
      9.09475 0.81769   46.712  1.51366  -59.701  0.14563  -40.923  0.38427   60.731
       9.1395 0.81831   46.147  1.50460  -60.453  0.14590  -41.545  0.38836   60.063
      9.18425 0.82049   45.383  1.49354  -61.158  0.14618  -41.987  0.39043   59.445
       9.2290 0.82234   44.811  1.48270  -61.875  0.14666  -42.563  0.39361   58.863
      9.27375 0.82369   44.270  1.47430  -62.564  0.14637  -42.937  0.39652   58.088
       9.3185 0.82631   43.498  1.46388  -63.301  0.14712  -43.656  0.40072   57.616
      9.36325 0.82692   42.886  1.45238  -64.082  0.14695  -44.052  0.40296   56.739
       9.4080 0.82945   42.226  1.44497  -64.833  0.14705  -44.596  0.40573   56.243
      9.45275 0.83093   41.643  1.43380  -65.457  0.14742  -45.040  0.40864   55.508
       9.4975 0.83158   40.935  1.42346  -66.234  0.14774  -45.459  0.41185   54.994
      9.54225 0.83434   40.317  1.41361  -67.003  0.14813  -46.181  0.41487   54.331
       9.5870 0.83498   39.713  1.40485  -67.705  0.14815  -46.546  0.41763   53.688
      9.63175 0.83576   39.132  1.39359  -68.391  0.14819  -47.112  0.42110   53.054
       9.6765 0.83860   38.464  1.38410  -69.101  0.14858  -47.688  0.42330   52.402
      9.72125 0.83898   37.871  1.37594  -69.832  0.14832  -48.268  0.42713   51.726
       9.7660 0.84189   37.158  1.36554  -70.629  0.14888  -48.725  0.42953   51.293
      9.81075 0.84306   36.626  1.35686  -71.264  0.14899  -49.316  0.43248   50.611
       9.8555 0.84520   35.944  1.34774  -71.978  0.14921  -49.670  0.43573   49.970
      9.90025 0.84601   35.396  1.33756  -72.732  0.14951  -50.266  0.43872   49.267
       9.9450 0.84638   34.721  1.32708  -73.407  0.14950  -50.974  0.44167   48.695
      9.98975 0.84824   34.166  1.31955  -74.165  0.14965  -51.445  0.44493   48.126
      10.0345 0.85018   33.593  1.31117  -74.813  0.14982  -51.939  0.44763   47.500
     10.07925 0.84982   32.934  1.30229  -75.529  0.14999  -52.364  0.45203   46.953
      10.1240 0.85306   32.451  1.29307  -76.321  0.15013  -52.942  0.45334   46.260
     10.16875 0.85306   31.700  1.28418  -76.980  0.15007  -53.367  0.45681   45.650
      10.2135 0.85517   31.116  1.27526  -77.758  0.15013  -53.991  0.45961   45.080
     10.25825 0.85609   30.485  1.26616  -78.426  0.15047  -54.510  0.46264   44.443
      10.3030 0.85747   29.975  1.25765  -79.123  0.15049  -54.957  0.46607   43.905
     10.34775 0.85938   29.355  1.24990  -79.799  0.15066  -55.470  0.46893   43.289
      10.3925 0.86017   28.708  1.24081  -80.518  0.15065  -56.227  0.47126   42.644
     10.43725 0.86120   28.176  1.23265  -81.177  0.15109  -56.842  0.47359   42.081
