! Data provided by Modelithics, Inc.  Tampa, Florida USA, June 2008
!Model SAV-541+
!VAR V_out= 3
!VAR I_out= 40
!VAR V_in= 0.4089
!VAR I_in= 0.9720
!BEGIN ACDATA
# GHZ S MA R 50
! Scattering Parameters
!% F n11x n11y n21x n21y n12x n12y n22x n22y
       0.1000 0.98923  -16.558  25.26931  169.503  0.00829   89.090  0.55190  -14.656
      0.14475 0.97715  -23.573  24.27500  164.206  0.01214   75.852  0.53939  -17.242
       0.1895 0.96705  -30.864  23.97899  159.612  0.01611   74.897  0.52923  -22.228
      0.23425 0.95202  -38.042  23.54178  155.089  0.01940   69.969  0.51383  -27.984
       0.2790 0.92834  -44.096  22.84484  150.575  0.02162   70.312  0.50332  -32.892
      0.32375 0.92551  -51.651  22.33607  146.552  0.02602   63.175  0.48840  -37.968
       0.3685 0.90301  -57.848  21.62936  142.421  0.02810   61.530  0.46930  -42.456
      0.41325 0.89423  -63.724  20.92055  138.680  0.03009   60.451  0.45921  -47.552
       0.4580 0.87705  -68.871  20.17955  135.489  0.03340   56.920  0.44666  -50.470
      0.50275 0.86356  -74.968  19.51925  131.970  0.03503   54.271  0.42897  -55.573
       0.5475 0.84605  -79.667  18.81613  128.904  0.03696   52.151  0.41502  -58.790
      0.59225 0.82813  -84.715  18.07732  125.942  0.03801   50.713  0.39906  -61.954
       0.6370 0.81791  -89.446  17.48645  123.075  0.03983   48.892  0.39037  -66.043
      0.68175 0.80643  -93.813  16.84872  120.405  0.04102   46.940  0.37653  -69.266
       0.7265 0.79291  -98.236  16.24065  117.832  0.04299   45.563  0.36300  -72.454
      0.77125 0.78345 -101.912  15.67143  115.452  0.04424   43.540  0.35057  -75.247
       0.8160 0.77095 -106.085  15.12069  113.088  0.04514   42.944  0.33776  -78.323
      0.86075 0.76184 -109.909  14.60290  110.825  0.04579   40.936  0.32785  -81.334
       0.9055 0.75235 -113.005  14.12400  108.777  0.04687   40.382  0.31853  -83.622
      0.95025 0.74611 -116.824  13.65636  106.674  0.04800   39.102  0.30933  -86.623
       0.9950 0.73735 -120.016  13.22012  104.767  0.04864   38.495  0.29877  -89.239
      1.03975 0.73180 -123.241  12.81337  102.873  0.05021   37.345  0.29200  -91.939
       1.0845 0.72296 -126.147  12.39114  101.010  0.05069   36.337  0.28346  -94.155
      1.12925 0.71771 -128.906  12.02627   99.365  0.05155   35.811  0.27482  -96.587
       1.1740 0.71369 -131.903  11.67098   97.620  0.05191   35.026  0.26789  -98.756
      1.21875 0.70705 -134.531  11.32761   96.003  0.05264   34.309  0.26163 -100.891
       1.2635 0.70323 -137.264  11.00622   94.367  0.05355   33.831  0.25436 -103.136
      1.30825 0.69995 -139.545  10.69989   92.917  0.05396   33.224  0.24812 -105.468
       1.3530 0.69341 -142.009  10.40181   91.403  0.05482   32.689  0.24344 -107.359
      1.39775 0.69126 -144.433  10.12923   89.949  0.05535   32.053  0.23690 -109.652
       1.4425 0.68670 -146.710  9.86357   88.461  0.05594   31.691  0.23308 -111.721
      1.48725 0.68392 -148.986  9.61792   87.085  0.05658   31.451  0.22800 -113.446
       1.5320 0.68124 -150.976  9.36744   85.706  0.05744   30.917  0.22307 -115.824
      1.57675 0.67721 -153.153  9.14562   84.379  0.05769   30.076  0.21931 -117.558
       1.6215 0.67631 -155.206  8.91686   83.044  0.05855   29.735  0.21631 -119.594
      1.66625 0.67247 -157.134  8.70229   81.790  0.05886   29.567  0.21120 -121.811
       1.7110 0.67196 -159.120  8.50955   80.499  0.05964   29.039  0.20764 -123.604
      1.75575 0.66939 -160.913  8.31445   79.317  0.06034   28.509  0.20385 -125.334
       1.8005 0.66540 -162.822  8.12839   78.053  0.06067   28.370  0.20118 -127.089
      1.84525 0.66674 -164.625  7.95352   76.867  0.06140   27.756  0.19822 -128.925
       1.8900 0.66275 -166.323  7.78185   75.677  0.06211   27.538  0.19475 -130.783
      1.93475 0.66226 -168.189  7.62118   74.480  0.06237   27.217  0.19200 -132.432
       1.9795 0.66065 -169.715  7.46278   73.382  0.06312   26.890  0.18907 -134.409
      2.02425 0.66028 -171.392  7.31508   72.265  0.06373   26.161  0.18712 -136.119
       2.0690 0.65717 -173.020  7.15829   71.151  0.06430   26.201  0.18474 -137.817
      2.11375 0.65796 -174.600  7.02878   70.023  0.06490   25.825  0.18152 -139.606
       2.1585 0.65698 -176.149  6.89238   68.969  0.06546   25.385  0.18031 -141.394
      2.20325 0.65580 -177.523  6.76128   67.923  0.06599   25.119  0.17731 -143.057
       2.2480 0.65466 -179.172  6.63868   66.880  0.06652   24.830  0.17568 -144.599
      2.29275 0.65388  179.394  6.50959   65.725  0.06704   24.346  0.17402 -146.474
       2.3375 0.65381  177.965  6.39716   64.789  0.06788   24.218  0.17170 -147.977
      2.38225 0.65313  176.497  6.28147   63.642  0.06863   23.975  0.17069 -149.627
       2.4270 0.65409  175.068  6.17598   62.728  0.06899   23.358  0.16831 -151.552
      2.47175 0.65199  173.734  6.06707   61.625  0.06949   23.256  0.16739 -152.775
       2.5165 0.65331  172.298  5.96657   60.650  0.07025   22.656  0.16578 -154.571
      2.56125 0.65222  171.046  5.87060   59.618  0.07086   22.769  0.16467 -156.119
       2.6060 0.65173  169.637  5.77456   58.655  0.07138   22.159  0.16412 -157.685
      2.65075 0.65150  168.504  5.67770   57.663  0.07218   22.117  0.16215 -159.218
       2.6955 0.65167  167.119  5.59126   56.746  0.07260   21.701  0.16158 -160.980
      2.74025 0.65168  165.730  5.49992   55.696  0.07290   21.509  0.16065 -162.323
       2.7850 0.65162  164.538  5.41521   54.827  0.07400   21.372  0.15951 -164.035
      2.82975 0.65067  163.238  5.33449   53.800  0.07399   20.468  0.15866 -165.273
       2.8745 0.65023  161.955  5.26173   52.845  0.07452   20.287  0.15883 -166.958
      2.91925 0.65077  160.996  5.17529   51.945  0.07590   20.003  0.15756 -168.404
       2.9640 0.65063  159.643  5.10441   50.984  0.07645   20.025  0.15775 -169.873
      3.00875 0.65034  158.431  5.02928   50.050  0.07688   19.328  0.15708 -171.639
       3.0535 0.65165  157.288  4.96541   49.153  0.07705   18.988  0.15697 -173.035
      3.09825 0.65025  155.993  4.88776   48.156  0.07842   19.043  0.15614 -174.763
       3.1430 0.65157  154.973  4.82853   47.272  0.07865   18.559  0.15618 -176.009
      3.18775 0.65058  153.812  4.75648   46.357  0.07966   18.192  0.15629 -177.355
       3.2325 0.65221  152.667  4.69922   45.407  0.08004   17.764  0.15601 -179.158
      3.27725 0.65223  151.505  4.63278   44.507  0.08075   17.297  0.15602  179.701
       3.3220 0.65268  150.476  4.57263   43.610  0.08130   17.208  0.15607  177.884
      3.36675 0.65243  149.272  4.50979   42.707  0.08146   16.829  0.15571  176.414
       3.4115 0.65211  148.269  4.44792   41.811  0.08223   16.564  0.15650  175.240
      3.45625 0.65386  147.129  4.39675   40.857  0.08289   15.795  0.15639  173.661
       3.5010 0.65479  146.042  4.34486   39.983  0.08354   15.666  0.15689  172.286
      3.54575 0.65461  144.911  4.28711   39.105  0.08426   15.254  0.15614  170.705
       3.5905 0.65562  143.863  4.23846   38.188  0.08482   15.107  0.15677  169.507
      3.63525 0.65634  142.803  4.18776   37.304  0.08567   14.408  0.15647  168.154
       3.6800 0.65640  141.704  4.13552   36.415  0.08591   14.307  0.15657  166.640
      3.72475 0.65806  140.616  4.08559   35.451  0.08675   13.811  0.15709  165.391
       3.7695 0.65895  139.613  4.04230   34.509  0.08695   13.468  0.15726  163.934
      3.81425 0.65905  138.694  3.98760   33.667  0.08808   13.475  0.15795  162.546
       3.8590 0.65890  137.498  3.94301   32.712  0.08845   12.812  0.15780  161.212
      3.90375 0.66045  136.580  3.89804   31.898  0.08927   12.281  0.15873  159.950
       3.9485 0.66013  135.502  3.85503   31.045  0.08978   12.032  0.15914  158.759
      3.99325 0.66164  134.588  3.81118   30.150  0.09051   11.982  0.15919  156.806
       4.0380 0.66241  133.539  3.77317   29.274  0.09097   11.254  0.16116  156.162
      4.08275 0.66252  132.655  3.72844   28.436  0.09150   11.118  0.16075  154.753
       4.1275 0.66333  131.627  3.68965   27.574  0.09254   10.544  0.16214  153.584
      4.17225 0.66477  130.616  3.65285   26.687  0.09237   10.336  0.16266  152.365
       4.2170 0.66478  129.698  3.60922   25.818  0.09365   10.040  0.16280  150.897
      4.26175 0.66579  128.657  3.57359   24.982  0.09346    9.574  0.16548  149.470
       4.3065 0.66750  127.708  3.53565   24.113  0.09460    9.119  0.16538  148.544
      4.35125 0.66767  126.789  3.49925   23.279  0.09548    8.614  0.16741  147.105
       4.3960 0.66813  125.802  3.46128   22.387  0.09581    8.272  0.16823  145.788
      4.44075 0.66876  124.898  3.42373   21.561  0.09639    7.857  0.16836  144.688
       4.4855 0.67124  123.912  3.39097   20.665  0.09719    7.390  0.16978  143.372
      4.53025 0.67046  123.011  3.35857   19.848  0.09775    6.773  0.17081  142.463
       4.5750 0.67201  122.056  3.32370   18.990  0.09839    6.577  0.17136  141.173
      4.61975 0.67331  121.088  3.29475   18.172  0.09908    6.311  0.17355  140.005
       4.6645 0.67455  120.182  3.26059   17.277  0.09965    5.879  0.17414  138.964
      4.70925 0.67493  119.297  3.22925   16.479  0.10046    5.431  0.17632  137.544
       4.7540 0.67584  118.398  3.19668   15.633  0.10091    4.860  0.17634  136.678
      4.79875 0.67634  117.569  3.16427   14.867  0.10148    4.625  0.17801  135.443
       4.8435 0.67799  116.683  3.13399   14.010  0.10219    3.937  0.18023  134.362
      4.88825 0.68099  115.702  3.11027   13.128  0.10271    3.568  0.18058  133.354
       4.9330 0.68137  114.853  3.07800   12.317  0.10361    3.352  0.18231  132.185
      4.97775 0.68268  113.909  3.05296   11.495  0.10399    2.950  0.18334  131.074
       5.0225 0.68321  113.001  3.02219   10.614  0.10497    2.355  0.18536  129.932
      5.06725 0.68474  112.151  2.99278    9.827  0.10551    1.957  0.18676  128.980
       5.1120 0.68477  111.311  2.96740    8.984  0.10562    1.628  0.18802  127.784
      5.15675 0.68771  110.326  2.93924    8.133  0.10647    0.942  0.18949  126.885
       5.2015 0.68852  109.625  2.91593    7.336  0.10726    0.418  0.19171  125.914
      5.24625 0.68976  108.597  2.88869    6.455  0.10768    0.171  0.19234  124.710
       5.2910 0.69043  107.736  2.86018    5.642  0.10824   -0.267  0.19454  123.545
      5.33575 0.69139  106.892  2.83717    4.856  0.10843   -0.702  0.19603  122.763
       5.3805 0.69414  106.106  2.81322    4.057  0.10946   -1.351  0.19805  121.842
      5.42525 0.69409  105.241  2.78384    3.225  0.11005   -1.635  0.19960  120.782
       5.4700 0.69613  104.419  2.76431    2.362  0.11075   -2.147  0.20133  119.767
      5.51475 0.69733  103.549  2.73914    1.565  0.11145   -2.583  0.20322  118.794
       5.5595 0.69785  102.739  2.71509    0.812  0.11192   -2.798  0.20536  117.832
      5.60425 0.69883  101.891  2.69111   -0.075  0.11258   -3.499  0.20701  116.743
       5.6490 0.70099  101.046  2.66742   -0.837  0.11311   -3.622  0.20898  115.955
      5.69375 0.70182  100.340  2.64373   -1.664  0.11370   -4.290  0.21038  114.814
       5.7385 0.70284   99.346  2.62239   -2.483  0.11415   -4.656  0.21248  114.030
      5.78325 0.70315   98.718  2.59845   -3.245  0.11500   -5.481  0.21436  113.012
       5.8280 0.70597   97.836  2.57951   -4.027  0.11538   -5.679  0.21584  112.220
      5.87275 0.70558   97.014  2.55812   -4.851  0.11627   -6.000  0.21742  111.317
       5.9175 0.70829   96.233  2.53775   -5.640  0.11637   -6.532  0.21990  110.342
      5.96225 0.70879   95.376  2.51794   -6.512  0.11724   -7.088  0.22226  109.571
       6.0070 0.71162   94.606  2.49875   -7.256  0.11831   -7.605  0.22415  108.974
      6.05175 0.71198   93.829  2.47625   -8.073  0.11817   -8.122  0.22597  107.712
       6.0965 0.71444   93.097  2.45968   -8.818  0.11912   -8.551  0.22866  107.074
      6.14125 0.71500   92.249  2.43625   -9.655  0.11952   -9.100  0.23037  106.201
       6.1860 0.71716   91.417  2.41999  -10.469  0.12027   -9.575  0.23279  105.317
      6.23075 0.71876   90.759  2.40092  -11.248  0.12090   -9.940  0.23531  104.449
       6.2755 0.71985   90.045  2.37910  -12.005  0.12143  -10.464  0.23670  103.554
      6.32025 0.72183   89.114  2.36276  -12.883  0.12173  -11.079  0.23973  102.814
       6.3650 0.72287   88.446  2.34339  -13.581  0.12246  -11.251  0.24148  101.990
      6.40975 0.72405   87.683  2.32432  -14.391  0.12300  -12.080  0.24451  101.226
       6.4545 0.72612   86.938  2.30652  -15.199  0.12333  -12.360  0.24639  100.466
      6.49925 0.72821   86.047  2.28737  -15.969  0.12382  -13.087  0.24883   99.575
       6.5440 0.72942   85.427  2.27098  -16.778  0.12475  -13.642  0.25095   98.711
      6.58875 0.73198   84.640  2.25497  -17.531  0.12513  -13.979  0.25353   98.103
       6.6335 0.73310   83.919  2.23709  -18.339  0.12562  -14.505  0.25587   97.005
      6.67825 0.73434   83.198  2.21899  -19.113  0.12632  -14.862  0.25846   96.512
       6.7230 0.73534   82.402  2.20121  -19.891  0.12622  -15.363  0.26017   95.553
      6.76775 0.73747   81.604  2.18365  -20.704  0.12699  -15.791  0.26272   94.782
       6.8125 0.73885   80.958  2.16796  -21.470  0.12759  -16.385  0.26518   93.986
      6.85725 0.73998   80.102  2.14973  -22.308  0.12811  -16.945  0.26672   93.246
       6.9020 0.74239   79.422  2.13546  -23.042  0.12843  -17.262  0.26977   92.519
      6.94675 0.74308   78.734  2.11792  -23.780  0.12917  -17.840  0.27173   91.872
       6.9915 0.74427   77.956  2.10144  -24.548  0.12965  -18.127  0.27445   90.771
      7.03625 0.74556   77.320  2.08509  -25.284  0.13019  -18.879  0.27696   90.315
       7.0810 0.74615   76.481  2.06890  -26.117  0.13037  -19.230  0.27950   89.420
      7.12575 0.74902   75.846  2.05451  -26.802  0.13062  -19.859  0.28249   88.667
       7.1705 0.75068   75.151  2.04005  -27.604  0.13163  -20.430  0.28467   87.903
      7.21525 0.75234   74.318  2.02511  -28.393  0.13183  -20.667  0.28704   87.275
       7.2600 0.75311   73.704  2.00749  -29.161  0.13249  -21.444  0.29008   86.515
      7.30475 0.75478   73.122  1.99395  -29.826  0.13269  -21.767  0.29204   85.660
       7.3495 0.75728   72.299  1.98053  -30.650  0.13298  -22.308  0.29546   85.034
      7.39425 0.75730   71.662  1.96540  -31.344  0.13337  -22.868  0.29705   84.395
       7.4390 0.75898   70.886  1.94901  -32.122  0.13383  -23.261  0.30038   83.525
      7.48375 0.76092   70.224  1.93533  -32.874  0.13405  -23.708  0.30242   82.751
       7.5285 0.76085   69.630  1.92312  -33.571  0.13472  -24.286  0.30533   82.168
      7.57325 0.76361   68.973  1.90737  -34.359  0.13527  -24.597  0.30838   81.488
       7.6180 0.76442   68.248  1.89357  -35.059  0.13600  -25.187  0.31060   80.824
      7.66275 0.76728   67.596  1.88037  -35.816  0.13628  -25.628  0.31344   80.021
       7.7075 0.76851   66.767  1.86654  -36.622  0.13688  -26.099  0.31650   79.412
      7.75225 0.77042   66.279  1.85523  -37.260  0.13723  -26.592  0.31858   78.675
       7.7970 0.77192   65.435  1.84188  -38.096  0.13728  -27.152  0.32261   78.025
      7.84175 0.77251   64.873  1.82817  -38.815  0.13778  -27.755  0.32417   77.234
       7.8865 0.77492   64.112  1.81383  -39.550  0.13820  -28.070  0.32676   76.516
      7.93125 0.77657   63.490  1.80209  -40.343  0.13889  -28.635  0.32962   75.956
       7.9760 0.77856   62.764  1.78959  -41.095  0.13920  -29.119  0.33104   75.257
      8.02075 0.78033   62.161  1.77771  -41.867  0.13991  -29.699  0.33635   74.484
       8.0655 0.78240   61.448  1.76440  -42.570  0.14004  -30.194  0.33775   74.030
      8.11025 0.78264   60.788  1.75194  -43.333  0.14019  -30.616  0.34053   73.040
       8.1550 0.78439   60.148  1.73858  -44.037  0.14060  -31.068  0.34333   72.574
      8.19975 0.78679   59.352  1.72769  -44.850  0.14122  -31.744  0.34624   71.962
       8.2445 0.78839   58.755  1.71322  -45.578  0.14142  -32.184  0.34891   71.152
      8.28925 0.78957   58.069  1.70182  -46.286  0.14177  -32.772  0.35220   70.661
       8.3340 0.79107   57.502  1.68902  -46.987  0.14221  -33.114  0.35426   69.885
      8.37875 0.79197   56.757  1.67547  -47.791  0.14262  -33.771  0.35783   69.336
       8.4235 0.79482   56.074  1.66434  -48.529  0.14276  -34.235  0.35968   68.434
      8.46825 0.79585   55.461  1.65405  -49.233  0.14327  -34.826  0.36383   67.839
       8.5130 0.79709   54.812  1.63858  -50.010  0.14325  -35.436  0.36671   67.115
      8.55775 0.79874   54.129  1.62839  -50.690  0.14401  -35.821  0.36903   66.571
       8.6025 0.79984   53.516  1.61657  -51.416  0.14356  -36.444  0.37204   65.859
      8.64725 0.80287   52.760  1.60465  -52.216  0.14413  -36.843  0.37435   65.298
       8.6920 0.80337   52.340  1.59432  -52.898  0.14453  -37.477  0.37818   64.529
      8.73675 0.80409   51.465  1.58122  -53.617  0.14480  -37.908  0.38095   63.989
       8.7815 0.80681   50.989  1.57237  -54.331  0.14532  -38.488  0.38403   63.265
      8.82625 0.80850   50.203  1.56079  -55.110  0.14519  -39.094  0.38709   62.593
       8.8710 0.80976   49.625  1.55025  -55.786  0.14559  -39.530  0.38935   61.896
      8.91575 0.81080   49.013  1.53688  -56.492  0.14625  -39.925  0.39234   61.297
       8.9605 0.81212   48.356  1.52820  -57.201  0.14626  -40.546  0.39577   60.735
      9.00525 0.81568   47.761  1.51730  -57.932  0.14615  -41.012  0.39767   59.938
       9.0500 0.81458   47.092  1.50457  -58.608  0.14618  -41.525  0.40158   59.274
      9.09475 0.81853   46.427  1.49646  -59.391  0.14675  -42.165  0.40440   58.764
       9.1395 0.81913   45.851  1.48708  -60.141  0.14709  -42.556  0.40834   58.059
      9.18425 0.82065   45.131  1.47453  -60.833  0.14729  -43.108  0.41084   57.520
       9.2290 0.82304   44.530  1.46525  -61.545  0.14759  -43.837  0.41366   56.846
      9.27375 0.82446   43.924  1.45609  -62.249  0.14778  -44.160  0.41657   56.168
       9.3185 0.82676   43.276  1.44540  -62.948  0.14793  -44.930  0.42076   55.571
      9.36325 0.82814   42.646  1.43456  -63.750  0.14796  -45.238  0.42265   54.792
       9.4080 0.82932   41.897  1.42627  -64.515  0.14810  -45.796  0.42553   54.254
      9.45275 0.83158   41.331  1.41574  -65.105  0.14848  -46.394  0.42790   53.543
       9.4975 0.83202   40.699  1.40614  -65.867  0.14844  -46.857  0.43137   53.050
      9.54225 0.83500   40.080  1.39668  -66.664  0.14898  -47.291  0.43428   52.440
       9.5870 0.83582   39.440  1.38761  -67.311  0.14889  -47.901  0.43668   51.758
      9.63175 0.83596   38.857  1.37638  -67.975  0.14907  -48.466  0.43983   51.112
       9.6765 0.83894   38.176  1.36697  -68.707  0.14931  -49.030  0.44229   50.507
      9.72125 0.83914   37.620  1.35790  -69.430  0.14937  -49.433  0.44566   49.742
       9.7660 0.84198   36.925  1.34878  -70.222  0.15001  -50.075  0.44804   49.420
      9.81075 0.84279   36.390  1.33908  -70.850  0.14999  -50.556  0.45126   48.665
       9.8555 0.84579   35.648  1.33083  -71.584  0.15023  -50.977  0.45401   48.187
      9.90025 0.84560   35.146  1.32051  -72.274  0.15064  -51.546  0.45755   47.380
       9.9450 0.84704   34.456  1.31070  -72.991  0.15001  -52.117  0.45977   46.837
      9.98975 0.84848   33.859  1.30262  -73.758  0.15033  -52.595  0.46301   46.243
      10.0345 0.85080   33.272  1.29489  -74.456  0.15075  -53.183  0.46570   45.674
     10.07925 0.85038   32.641  1.28563  -75.115  0.15056  -53.794  0.46952   45.054
      10.1240 0.85280   32.134  1.27662  -75.875  0.15063  -54.120  0.47100   44.488
     10.16875 0.85319   31.415  1.26729  -76.527  0.15029  -54.737  0.47443   43.809
      10.2135 0.85536   30.884  1.25922  -77.253  0.15094  -55.187  0.47759   43.180
     10.25825 0.85622   30.244  1.25031  -77.995  0.15090  -55.815  0.48035   42.633
      10.3030 0.85701   29.643  1.24148  -78.696  0.15111  -56.424  0.48411   42.059
     10.34775 0.85978   29.071  1.23356  -79.304  0.15128  -56.979  0.48632   41.530
      10.3925 0.86047   28.456  1.22504  -80.028  0.15123  -57.334  0.48836   40.875
     10.43725 0.86061   27.951  1.21671  -80.668  0.15086  -57.888  0.49093   40.313
