! Data provided by Modelithics, Inc.  Tampa, Florida USA, June 2008
!Model SAV-541+
!VAR V_out= 3
!VAR I_out= 30
!VAR V_in= 0.3772
!VAR I_in= 0.8792
!BEGIN ACDATA
# GHZ S MA R 50
! Scattering Parameters
!% F n11x n11y n21x n21y n12x n12y n22x n22y
       0.1000 0.99619  -16.122  22.99334  169.875  0.00942   80.224  0.58186  -11.847
      0.14475 0.97993  -22.276  22.19913  165.026  0.01262   77.006  0.57867  -15.796
       0.1895 0.96841  -29.230  21.99469  160.595  0.01653   75.045  0.56784  -20.440
      0.23425 0.95692  -36.138  21.65105  156.291  0.02041   71.078  0.55244  -25.672
       0.2790 0.93759  -42.179  21.06649  151.914  0.02220   68.257  0.54191  -29.879
      0.32375 0.93444  -49.243  20.67018  148.063  0.02751   65.944  0.52998  -34.736
       0.3685 0.91248  -55.212  20.07472  143.999  0.02937   62.069  0.50947  -39.143
      0.41325 0.90307  -60.838  19.47987  140.372  0.03223   59.401  0.49708  -43.658
       0.4580 0.88979  -65.980  18.84450  137.234  0.03426   57.792  0.48449  -46.619
      0.50275 0.87570  -71.863  18.27469  133.761  0.03698   53.324  0.46923  -51.229
       0.5475 0.85949  -76.524  17.66649  130.710  0.03881   53.069  0.45463  -54.318
      0.59225 0.84099  -81.459  17.00105  127.753  0.04080   49.668  0.43811  -57.484
       0.6370 0.83149  -86.082  16.48184  124.838  0.04251   48.521  0.42827  -61.178
      0.68175 0.81988  -90.402  15.91848  122.220  0.04404   46.745  0.41319  -64.230
       0.7265 0.80724  -94.709  15.38530  119.622  0.04560   44.636  0.39930  -67.289
      0.77125 0.79707  -98.550  14.86646  117.199  0.04685   43.728  0.38546  -69.792
       0.8160 0.78519 -102.674  14.37933  114.772  0.04782   41.833  0.37094  -72.799
      0.86075 0.77613 -106.454  13.90945  112.504  0.04947   41.304  0.35944  -75.614
       0.9055 0.76679 -109.620  13.46455  110.412  0.05037   40.080  0.34987  -77.736
      0.95025 0.76027 -113.478  13.04496  108.286  0.05132   38.280  0.33917  -80.642
       0.9950 0.75051 -116.673  12.63381  106.334  0.05184   37.426  0.32786  -82.994
      1.03975 0.74460 -119.975  12.26055  104.391  0.05333   36.398  0.31972  -85.586
       1.0845 0.73671 -122.891  11.87062  102.544  0.05403   36.110  0.30986  -87.714
      1.12925 0.73011 -125.753  11.53662  100.817  0.05473   34.714  0.30103  -89.759
       1.1740 0.72573 -128.731  11.19546   99.080  0.05607   33.610  0.29327  -91.924
      1.21875 0.71860 -131.450  10.88340   97.374  0.05615   33.202  0.28659  -93.897
       1.2635 0.71524 -134.145  10.57663   95.717  0.05713   32.283  0.27827  -96.040
      1.30825 0.71113 -136.503  10.29275   94.232  0.05757   31.732  0.27128  -98.278
       1.3530 0.70462 -139.054  10.01527   92.662  0.05857   31.214  0.26561  -99.994
      1.39775 0.70208 -141.503  9.75742   91.155  0.05870   30.397  0.25726 -102.083
       1.4425 0.69751 -143.808  9.50964   89.689  0.05961   29.745  0.25387 -104.050
      1.48725 0.69435 -146.105  9.27447   88.294  0.05994   29.220  0.24704 -105.711
       1.5320 0.69086 -148.306  9.04365   86.793  0.06072   28.548  0.24126 -107.830
      1.57675 0.68708 -150.367  8.82447   85.483  0.06141   28.157  0.23756 -109.540
       1.6215 0.68589 -152.527  8.61488   84.124  0.06203   27.944  0.23307 -111.512
      1.66625 0.68183 -154.502  8.40819   82.816  0.06224   27.146  0.22764 -113.508
       1.7110 0.68088 -156.502  8.22824   81.503  0.06294   26.737  0.22294 -115.256
      1.75575 0.67815 -158.373  8.03945   80.297  0.06398   26.463  0.21850 -116.758
       1.8005 0.67381 -160.277  7.85970   78.992  0.06386   25.890  0.21520 -118.579
      1.84525 0.67494 -162.166  7.69698   77.775  0.06459   25.362  0.21125 -120.347
       1.8900 0.67159 -163.892  7.52876   76.579  0.06509   25.018  0.20731 -122.038
      1.93475 0.67076 -165.804  7.38325   75.335  0.06572   24.846  0.20418 -123.642
       1.9795 0.66851 -167.287  7.22002   74.264  0.06625   24.367  0.20016 -125.453
      2.02425 0.66802 -169.071  7.08420   73.085  0.06666   23.850  0.19732 -127.046
       2.0690 0.66506 -170.764  6.93668   71.945  0.06723   23.697  0.19445 -128.723
      2.11375 0.66519 -172.404  6.81131   70.789  0.06774   23.033  0.19081 -130.415
       2.1585 0.66426 -173.946  6.68040   69.718  0.06838   22.924  0.18868 -132.164
      2.20325 0.66346 -175.400  6.55997   68.645  0.06857   22.292  0.18563 -133.732
       2.2480 0.66189 -177.006  6.43518   67.571  0.06919   22.122  0.18295 -135.261
      2.29275 0.66154 -178.546  6.31751   66.386  0.06989   21.689  0.18079 -137.008
       2.3375 0.66119 -179.971  6.20560   65.459  0.07030   21.410  0.17772 -138.423
      2.38225 0.66025  178.513  6.09711   64.290  0.07096   21.082  0.17633 -140.063
       2.4270 0.66045  177.043  5.98949   63.337  0.07129   20.529  0.17336 -141.731
      2.47175 0.65913  175.742  5.88890   62.248  0.07235   20.288  0.17207 -143.127
       2.5165 0.66003  174.221  5.79303   61.229  0.07262   20.199  0.16927 -144.769
      2.56125 0.65845  172.983  5.69969   60.182  0.07327   19.748  0.16822 -146.393
       2.6060 0.65799  171.464  5.60482   59.177  0.07358   19.548  0.16664 -147.984
      2.65075 0.65724  170.261  5.51180   58.160  0.07397   19.026  0.16486 -149.389
       2.6955 0.65764  168.917  5.42928   57.237  0.07456   18.777  0.16333 -151.232
      2.74025 0.65772  167.439  5.34530   56.168  0.07518   18.540  0.16221 -152.528
       2.7850 0.65766  166.297  5.26168   55.306  0.07566   18.037  0.16043 -154.214
      2.82975 0.65633  164.923  5.18300   54.241  0.07613   17.583  0.15920 -155.386
       2.8745 0.65661  163.620  5.11337   53.280  0.07693   17.590  0.15870 -157.258
      2.91925 0.65638  162.613  5.03046   52.350  0.07752   17.353  0.15707 -158.577
       2.9640 0.65598  161.220  4.95938   51.405  0.07815   16.928  0.15698 -160.020
      3.00875 0.65632  160.025  4.89291   50.432  0.07845   16.325  0.15549 -161.847
       3.0535 0.65736  158.842  4.82627   49.522  0.07890   16.190  0.15496 -163.211
      3.09825 0.65564  157.551  4.75079   48.524  0.07971   16.300  0.15387 -164.984
       3.1430 0.65713  156.484  4.69359   47.608  0.07971   15.509  0.15349 -166.336
      3.18775 0.65574  155.308  4.62295   46.675  0.08070   15.016  0.15298 -167.784
       3.2325 0.65790  154.173  4.57141   45.746  0.08116   14.824  0.15263 -169.492
      3.27725 0.65729  152.950  4.50353   44.785  0.08185   14.638  0.15207 -170.729
       3.3220 0.65792  151.843  4.44851   43.894  0.08242   14.138  0.15145 -172.517
      3.36675 0.65733  150.691  4.38563   42.966  0.08307   13.723  0.15100 -173.960
       3.4115 0.65767  149.665  4.32968   42.067  0.08385   13.423  0.15111 -175.489
      3.45625 0.65872  148.497  4.27698   41.135  0.08383   13.268  0.15029 -177.039
       3.5010 0.65975  147.423  4.22631   40.261  0.08486   13.098  0.15051 -178.323
      3.54575 0.65944  146.250  4.16973   39.330  0.08524   12.495  0.14975 -179.959
       3.5905 0.66074  145.196  4.12206   38.430  0.08563   12.219  0.15021  178.529
      3.63525 0.66142  144.060  4.07485   37.494  0.08627   11.704  0.15006  177.009
       3.6800 0.66123  143.001  4.02389   36.447  0.08655   11.583  0.14991  175.392
      3.72475 0.66249  141.886  3.97710   35.496  0.08754   11.297  0.14970  174.132
       3.7695 0.66307  140.875  3.93120   34.657  0.08784   10.795  0.14975  172.531
      3.81425 0.66394  139.932  3.88445   33.827  0.08860   10.797  0.14999  171.061
       3.8590 0.66314  138.669  3.83639   32.869  0.08899   10.018  0.14973  169.750
      3.90375 0.66549  137.790  3.79589   32.040  0.08958   10.120  0.15019  168.095
       3.9485 0.66469  136.666  3.75335   31.138  0.08984    9.377  0.15011  166.842
      3.99325 0.66675  135.664  3.71140   30.237  0.09062    9.350  0.15040  165.116
       4.0380 0.66616  134.690  3.67280   29.365  0.09141    8.715  0.15146  164.240
      4.08275 0.66722  133.771  3.62936   28.513  0.09191    8.454  0.15064  162.785
       4.1275 0.66813  132.733  3.59405   27.653  0.09236    8.039  0.15188  161.370
      4.17225 0.66942  131.691  3.55520   26.713  0.09313    7.740  0.15295  159.960
       4.2170 0.66924  130.748  3.51579   25.872  0.09366    7.686  0.15207  158.725
      4.26175 0.67047  129.708  3.47939   25.007  0.09462    6.759  0.15418  157.322
       4.3065 0.67125  128.767  3.44222   24.154  0.09473    6.611  0.15430  156.082
      4.35125 0.67130  127.760  3.40742   23.263  0.09528    6.245  0.15609  154.563
       4.3960 0.67295  126.834  3.37192   22.424  0.09524    6.000  0.15613  153.187
      4.44075 0.67375  125.853  3.33848   21.545  0.09601    5.510  0.15602  152.033
       4.4855 0.67512  124.881  3.30249   20.664  0.09659    5.322  0.15752  150.535
      4.53025 0.67461  123.922  3.27237   19.803  0.09730    4.740  0.15843  149.709
       4.5750 0.67606  123.023  3.23707   18.975  0.09815    4.364  0.15897  148.175
      4.61975 0.67733  122.019  3.21099   18.149  0.09859    3.899  0.16152  146.698
       4.6645 0.67747  121.116  3.17453   17.234  0.09900    3.481  0.16136  145.628
      4.70925 0.67910  120.229  3.14708   16.425  0.09954    3.149  0.16313  144.154
       4.7540 0.68020  119.311  3.11467   15.568  0.10009    2.864  0.16325  143.390
      4.79875 0.68101  118.443  3.08444   14.784  0.10075    2.502  0.16482  141.927
       4.8435 0.68185  117.516  3.05470   13.923  0.10134    1.987  0.16683  140.726
      4.88825 0.68440  116.514  3.02918   13.030  0.10196    1.674  0.16706  139.589
       4.9330 0.68514  115.663  3.00020   12.163  0.10250    1.078  0.16884  138.395
      4.97775 0.68629  114.764  2.97502   11.374  0.10313    0.747  0.16943  137.263
       5.0225 0.68665  113.800  2.94532   10.499  0.10357    0.484  0.17106  136.091
      5.06725 0.68893  112.963  2.91813    9.701  0.10444   -0.030  0.17237  134.846
       5.1120 0.68820  112.114  2.89167    8.859  0.10484   -0.561  0.17381  133.747
      5.15675 0.69077  111.087  2.86414    7.983  0.10533   -0.991  0.17556  132.672
       5.2015 0.69176  110.376  2.84153    7.166  0.10573   -1.298  0.17704  131.393
      5.24625 0.69338  109.371  2.81648    6.299  0.10634   -1.774  0.17790  130.259
       5.2910 0.69432  108.466  2.78870    5.449  0.10673   -2.215  0.18000  129.065
      5.33575 0.69534  107.606  2.76782    4.644  0.10735   -2.653  0.18137  128.250
       5.3805 0.69799  106.806  2.74333    3.820  0.10848   -3.084  0.18303  127.189
      5.42525 0.69721  105.944  2.71307    3.001  0.10868   -3.500  0.18440  126.010
       5.4700 0.69965  105.109  2.69598    2.163  0.10917   -3.888  0.18568  124.921
      5.51475 0.70138  104.224  2.67184    1.331  0.10988   -4.251  0.18820  123.829
       5.5595 0.70170  103.454  2.64782    0.554  0.11034   -4.542  0.18943  123.003
      5.60425 0.70269  102.596  2.62456   -0.308  0.11080   -5.167  0.19138  121.621
       5.6490 0.70413  101.688  2.60229   -1.107  0.11128   -5.503  0.19324  120.837
      5.69375 0.70557  100.951  2.57879   -1.952  0.11194   -6.051  0.19478  119.562
       5.7385 0.70682   99.961  2.55952   -2.782  0.11276   -6.611  0.19645  118.678
      5.78325 0.70697   99.401  2.53542   -3.503  0.11337   -6.692  0.19811  117.792
       5.8280 0.70940   98.473  2.51657   -4.292  0.11345   -7.245  0.20009  116.890
      5.87275 0.70915   97.678  2.49548   -5.143  0.11466   -7.547  0.20153  115.983
       5.9175 0.71201   96.852  2.47627   -5.973  0.11491   -8.242  0.20419  114.876
      5.96225 0.71265   95.955  2.45555   -6.831  0.11570   -8.574  0.20627  113.925
       6.0070 0.71516   95.200  2.43803   -7.557  0.11628   -8.910  0.20812  113.297
      6.05175 0.71459   94.420  2.41430   -8.382  0.11691   -9.545  0.20982  112.112
       6.0965 0.71760   93.683  2.39918   -9.134  0.11667   -9.951  0.21276  111.388
      6.14125 0.71795   92.760  2.37711  -10.023  0.11787  -10.520  0.21441  110.384
       6.1860 0.72076   92.001  2.36070  -10.805  0.11813  -10.932  0.21639  109.523
      6.23075 0.72234   91.330  2.34324  -11.595  0.11889  -11.344  0.21881  108.530
       6.2755 0.72316   90.568  2.32163  -12.402  0.11898  -12.072  0.22095  107.739
      6.32025 0.72434   89.643  2.30437  -13.252  0.11973  -12.256  0.22376  106.867
       6.3650 0.72677   88.979  2.28708  -13.984  0.12024  -12.759  0.22513  105.895
      6.40975 0.72646   88.203  2.26767  -14.807  0.12112  -13.336  0.22769  104.917
       6.4545 0.72920   87.424  2.25109  -15.602  0.12150  -13.664  0.23030  104.382
      6.49925 0.73121   86.569  2.23266  -16.369  0.12216  -14.205  0.23198  103.396
       6.5440 0.73184   85.916  2.21617  -17.197  0.12221  -14.788  0.23456  102.414
      6.58875 0.73493   85.123  2.19942  -17.966  0.12322  -15.152  0.23680  101.928
       6.6335 0.73593   84.367  2.18405  -18.776  0.12309  -15.533  0.23901  100.647
      6.67825 0.73779   83.663  2.16599  -19.562  0.12390  -16.222  0.24235  100.160
       6.7230 0.73830   82.890  2.14928  -20.328  0.12442  -16.453  0.24396   99.140
      6.76775 0.74015   82.044  2.13243  -21.176  0.12474  -16.861  0.24624   98.361
       6.8125 0.74085   81.387  2.11495  -21.927  0.12545  -17.518  0.24828   97.547
      6.85725 0.74294   80.588  2.09906  -22.746  0.12602  -18.021  0.25035   96.613
       6.9020 0.74527   79.916  2.08388  -23.506  0.12637  -18.377  0.25352   96.024
      6.94675 0.74553   79.148  2.06681  -24.255  0.12663  -18.881  0.25483   95.189
       6.9915 0.74757   78.432  2.05226  -25.026  0.12725  -19.476  0.25842   94.164
      7.03625 0.74884   77.717  2.03689  -25.785  0.12749  -19.847  0.26049   93.694
       7.0810 0.74964   77.009  2.02101  -26.628  0.12804  -20.039  0.26308   92.717
      7.12575 0.75203   76.307  2.00509  -27.313  0.12868  -20.884  0.26603   92.007
       7.1705 0.75361   75.578  1.99215  -28.123  0.12924  -21.385  0.26851   91.218
      7.21525 0.75463   74.818  1.97611  -28.886  0.12947  -21.797  0.27060   90.444
       7.2600 0.75666   74.165  1.96120  -29.686  0.12959  -22.307  0.27373   89.639
      7.30475 0.75705   73.476  1.94563  -30.402  0.13018  -22.540  0.27534   88.838
       7.3495 0.76022   72.703  1.93527  -31.222  0.13061  -23.309  0.27923   88.202
      7.39425 0.75995   72.080  1.91816  -31.908  0.13124  -23.636  0.28087   87.464
       7.4390 0.76201   71.282  1.90435  -32.672  0.13168  -24.130  0.28396   86.569
      7.48375 0.76409   70.609  1.89032  -33.444  0.13205  -24.612  0.28585   85.872
       7.5285 0.76444   69.955  1.87890  -34.177  0.13243  -24.999  0.28914   85.174
      7.57325 0.76595   69.343  1.86235  -34.940  0.13282  -25.466  0.29217   84.434
       7.6180 0.76700   68.520  1.84888  -35.726  0.13344  -25.760  0.29428   83.756
      7.66275 0.76883   67.959  1.83591  -36.416  0.13360  -26.353  0.29719   82.917
       7.7075 0.77061   67.116  1.82292  -37.235  0.13410  -26.845  0.29988   82.320
      7.75225 0.77308   66.581  1.81213  -37.904  0.13480  -27.324  0.30237   81.547
       7.7970 0.77390   65.794  1.79748  -38.761  0.13473  -27.598  0.30578   80.859
      7.84175 0.77486   65.226  1.78561  -39.461  0.13565  -28.408  0.30795   80.031
       7.8865 0.77751   64.463  1.77249  -40.224  0.13596  -28.755  0.31126   79.274
      7.93125 0.77895   63.809  1.75942  -41.005  0.13620  -29.282  0.31390   78.765
       7.9760 0.78152   63.029  1.74811  -41.807  0.13634  -29.831  0.31520   77.961
      8.02075 0.78205   62.509  1.73663  -42.531  0.13752  -30.110  0.32040   77.287
       8.0655 0.78480   61.741  1.72398  -43.261  0.13754  -30.775  0.32213   76.718
      8.11025 0.78560   61.136  1.71115  -44.017  0.13808  -31.239  0.32502   75.804
       8.1550 0.78718   60.446  1.69915  -44.733  0.13836  -31.654  0.32793   75.281
      8.19975 0.78889   59.679  1.68719  -45.568  0.13869  -32.254  0.33060   74.626
       8.2445 0.79085   59.123  1.67455  -46.239  0.13896  -32.654  0.33315   73.913
      8.28925 0.79148   58.398  1.66232  -46.997  0.13968  -33.240  0.33649   73.256
       8.3340 0.79230   57.777  1.64926  -47.736  0.13986  -33.612  0.33880   72.515
      8.37875 0.79400   57.029  1.63709  -48.558  0.14010  -34.226  0.34254   71.906
       8.4235 0.79670   56.383  1.62723  -49.258  0.14042  -34.687  0.34447   71.080
      8.46825 0.79793   55.756  1.61529  -50.001  0.14092  -35.277  0.34859   70.467
       8.5130 0.79895   55.126  1.60151  -50.779  0.14088  -35.765  0.35126   69.648
      8.55775 0.80105   54.387  1.59047  -51.512  0.14149  -36.438  0.35396   69.084
       8.6025 0.80214   53.790  1.58001  -52.243  0.14178  -36.873  0.35707   68.365
      8.64725 0.80382   53.098  1.56822  -52.999  0.14221  -37.246  0.35943   67.942
       8.6920 0.80580   52.534  1.55795  -53.738  0.14195  -37.884  0.36330   66.977
      8.73675 0.80652   51.787  1.54575  -54.426  0.14236  -38.326  0.36587   66.473
       8.7815 0.80863   51.244  1.53655  -55.172  0.14315  -38.762  0.36916   65.790
      8.82625 0.81047   50.458  1.52539  -55.927  0.14283  -39.378  0.37300   64.991
       8.8710 0.81189   49.899  1.51420  -56.609  0.14324  -39.754  0.37484   64.266
      8.91575 0.81306   49.263  1.50246  -57.321  0.14377  -40.398  0.37755   63.699
       8.9605 0.81402   48.651  1.49261  -58.051  0.14409  -40.926  0.38110   63.116
      9.00525 0.81707   48.026  1.48251  -58.777  0.14415  -41.348  0.38327   62.273
       9.0500 0.81673   47.358  1.46966  -59.476  0.14412  -41.864  0.38719   61.670
      9.09475 0.82010   46.667  1.46136  -60.280  0.14447  -42.545  0.38983   61.054
       9.1395 0.82047   46.125  1.45268  -60.943  0.14472  -43.074  0.39401   60.383
      9.18425 0.82281   45.390  1.44094  -61.738  0.14510  -43.519  0.39641   59.799
       9.2290 0.82457   44.793  1.43181  -62.401  0.14529  -44.047  0.39967   59.136
      9.27375 0.82677   44.178  1.42246  -63.170  0.14552  -44.555  0.40255   58.411
       9.3185 0.82895   43.491  1.41348  -63.859  0.14561  -45.117  0.40643   57.842
      9.36325 0.82908   42.872  1.40223  -64.656  0.14569  -45.541  0.40845   57.054
       9.4080 0.83117   42.164  1.39415  -65.424  0.14627  -46.205  0.41199   56.440
      9.45275 0.83251   41.551  1.38415  -66.100  0.14579  -46.490  0.41395   55.724
       9.4975 0.83348   40.926  1.37438  -66.830  0.14664  -47.069  0.41784   55.201
      9.54225 0.83723   40.261  1.36550  -67.614  0.14675  -47.610  0.42037   54.619
       9.5870 0.83698   39.645  1.35570  -68.294  0.14702  -48.026  0.42282   53.856
      9.63175 0.83764   39.059  1.34572  -68.984  0.14681  -48.495  0.42647   53.285
       9.6765 0.84035   38.358  1.33650  -69.702  0.14757  -49.090  0.42862   52.667
      9.72125 0.84076   37.800  1.32827  -70.433  0.14722  -49.492  0.43251   51.997
       9.7660 0.84359   37.109  1.31760  -71.242  0.14761  -50.023  0.43497   51.565
      9.81075 0.84438   36.528  1.30955  -71.883  0.14759  -50.568  0.43798   50.806
       9.8555 0.84685   35.838  1.30075  -72.619  0.14805  -51.113  0.44097   50.229
      9.90025 0.84744   35.359  1.29123  -73.342  0.14811  -51.804  0.44396   49.405
       9.9450 0.84856   34.674  1.28146  -74.033  0.14817  -52.216  0.44721   48.945
      9.98975 0.84975   34.048  1.27234  -74.794  0.14823  -52.784  0.45056   48.326
      10.0345 0.85161   33.491  1.26510  -75.438  0.14850  -53.228  0.45324   47.740
     10.07925 0.85152   32.882  1.25573  -76.145  0.14891  -53.792  0.45752   47.134
      10.1240 0.85386   32.365  1.24684  -76.915  0.14885  -54.228  0.45898   46.477
     10.16875 0.85430   31.608  1.23780  -77.565  0.14880  -54.909  0.46224   45.857
      10.2135 0.85628   31.050  1.22974  -78.361  0.14889  -55.321  0.46526   45.219
     10.25825 0.85719   30.399  1.22034  -79.043  0.14907  -55.809  0.46784   44.618
      10.3030 0.85897   29.843  1.21234  -79.753  0.14959  -56.320  0.47167   44.128
     10.34775 0.86042   29.261  1.20485  -80.407  0.14984  -57.043  0.47398   43.449
      10.3925 0.86150   28.587  1.19643  -81.144  0.14914  -57.311  0.47640   42.872
     10.43725 0.86187   28.091  1.18887  -81.782  0.14952  -57.977  0.47914   42.217
