! Data provided by Modelithics, Inc.  Tampa, Florida USA, June 2008
!Model SAV-541+
!VAR V_out= 4
!VAR I_out= 60
!VAR V_in= 0.4469
!VAR I_in= 0.9720
!BEGIN ACDATA
# GHZ S MA R 50
! Scattering Parameters
!% F n11x n11y n21x n21y n12x n12y n22x n22y
       0.1000 0.99239  -17.879  27.85599  168.524  0.00845   83.666  0.52573  -14.699
      0.14475 0.97405  -24.862  26.79336  163.161  0.01133   74.957  0.51688  -18.293
       0.1895 0.95945  -32.537  26.37319  158.347  0.01480   75.184  0.50546  -23.422
      0.23425 0.94512  -40.155  25.83301  153.674  0.01807   69.549  0.48972  -29.373
       0.2790 0.92011  -46.730  24.97920  148.968  0.02000   67.703  0.47642  -34.150
      0.32375 0.91556  -54.383  24.36313  144.800  0.02390   62.290  0.46271  -39.549
       0.3685 0.89181  -60.688  23.46986  140.640  0.02629   61.502  0.44214  -44.084
      0.41325 0.87934  -66.801  22.64711  136.820  0.02858   58.469  0.42848  -49.427
       0.4580 0.86700  -72.163  21.77416  133.569  0.03012   53.953  0.41709  -52.642
      0.50275 0.84910  -78.250  20.99316  130.027  0.03220   53.962  0.40059  -57.354
       0.5475 0.83062  -83.113  20.17553  126.959  0.03329   52.930  0.38739  -60.544
      0.59225 0.81201  -88.121  19.34293  124.002  0.03438   50.101  0.36970  -63.723
       0.6370 0.80056  -92.856  18.64226  121.102  0.03691   48.153  0.36232  -67.682
      0.68175 0.78912  -97.273  17.93127  118.472  0.03723   47.107  0.34864  -70.995
       0.7265 0.77637 -101.647  17.25186  115.981  0.03920   45.846  0.33535  -74.169
      0.77125 0.76647 -105.395  16.61523  113.580  0.03960   44.569  0.32227  -76.870
       0.8160 0.75472 -109.524  16.00675  111.272  0.04100   43.099  0.31086  -79.864
      0.86075 0.74605 -113.232  15.43493  109.060  0.04171   42.451  0.30094  -82.997
       0.9055 0.73591 -116.380  14.89884  107.035  0.04278   41.269  0.29230  -85.061
      0.95025 0.73021 -120.119  14.38883  105.010  0.04391   40.387  0.28278  -88.215
       0.9950 0.72189 -123.336  13.90319  103.097  0.04402   39.408  0.27356  -90.598
      1.03975 0.71569 -126.463  13.45633  101.280  0.04528   38.638  0.26598  -93.318
       1.0845 0.70868 -129.315  13.00821   99.461  0.04585   38.134  0.25837  -95.577
      1.12925 0.70262 -132.069  12.61261   97.849  0.04705   37.313  0.25023  -97.839
       1.1740 0.69863 -134.920  12.21972   96.178  0.04714   36.783  0.24392 -100.012
      1.21875 0.69245 -137.553  11.86663   94.568  0.04830   36.332  0.23834 -101.910
       1.2635 0.68945 -140.224  11.51597   92.969  0.04874   35.605  0.23176 -104.359
      1.30825 0.68580 -142.422  11.18486   91.599  0.04912   35.137  0.22567 -106.546
       1.3530 0.67994 -144.880  10.86714   90.099  0.05010   35.227  0.22068 -108.468
      1.39775 0.67738 -147.208  10.57869   88.668  0.05060   34.480  0.21489 -110.684
       1.4425 0.67374 -149.528  10.29361   87.229  0.05137   34.103  0.21145 -112.711
      1.48725 0.67052 -151.705  10.02744   85.901  0.05171   33.628  0.20659 -114.419
       1.5320 0.66852 -153.651  9.77076   84.556  0.05285   33.315  0.20214 -116.666
      1.57675 0.66501 -155.732  9.52974   83.248  0.05361   32.660  0.19886 -118.451
       1.6215 0.66361 -157.717  9.29103   81.974  0.05357   32.864  0.19573 -120.496
      1.66625 0.66002 -159.627  9.05907   80.747  0.05455   31.888  0.19107 -122.571
       1.7110 0.65981 -161.496  8.85831   79.497  0.05536   31.906  0.18804 -124.368
      1.75575 0.65748 -163.312  8.64985   78.337  0.05583   31.393  0.18424 -126.099
       1.8005 0.65391 -165.120  8.45622   77.092  0.05647   30.906  0.18188 -127.791
      1.84525 0.65512 -166.956  8.27210   75.953  0.05649   30.968  0.17902 -129.679
       1.8900 0.65179 -168.569  8.09076   74.775  0.05754   30.248  0.17621 -131.458
      1.93475 0.65116 -170.458  7.92209   73.593  0.05807   30.066  0.17395 -133.135
       1.9795 0.64970 -171.877  7.75402   72.541  0.05879   29.892  0.17061 -135.145
      2.02425 0.64933 -173.522  7.59900   71.419  0.05924   29.235  0.16880 -136.881
       2.0690 0.64672 -175.118  7.43555   70.355  0.06001   29.160  0.16685 -138.483
      2.11375 0.64719 -176.673  7.29788   69.262  0.06066   28.533  0.16376 -140.232
       2.1585 0.64698 -178.157  7.16160   68.223  0.06114   28.796  0.16276 -142.102
      2.20325 0.64603 -179.541  7.02429   67.171  0.06170   28.713  0.16021 -143.740
       2.2480 0.64423  178.921  6.88729   66.174  0.06244   28.008  0.15885 -145.353
      2.29275 0.64432  177.468  6.76094   65.014  0.06307   27.683  0.15711 -146.901
       2.3375 0.64367  176.100  6.63618   64.143  0.06374   27.585  0.15497 -148.706
      2.38225 0.64349  174.674  6.52000   63.004  0.06424   27.341  0.15417 -150.219
       2.4270 0.64443  173.271  6.40610   62.118  0.06503   26.975  0.15205 -152.131
      2.47175 0.64229  172.038  6.29220   61.035  0.06558   26.803  0.15118 -153.446
       2.5165 0.64401  170.598  6.19259   60.083  0.06634   26.306  0.14981 -155.100
      2.56125 0.64242  169.386  6.08783   59.054  0.06698   26.039  0.14915 -156.740
       2.6060 0.64249  167.977  5.99060   58.108  0.06755   25.936  0.14812 -158.177
      2.65075 0.64295  166.855  5.89051   57.140  0.06793   25.708  0.14693 -159.984
       2.6955 0.64295  165.521  5.80005   56.206  0.06875   25.229  0.14607 -161.651
      2.74025 0.64341  164.129  5.70728   55.197  0.06975   24.957  0.14573 -162.923
       2.7850 0.64310  162.988  5.61765   54.348  0.07027   24.606  0.14444 -164.638
      2.82975 0.64146  161.746  5.53100   53.334  0.07074   24.160  0.14361 -165.933
       2.8745 0.64153  160.474  5.45635   52.394  0.07125   23.841  0.14390 -167.566
      2.91925 0.64219  159.472  5.36727   51.498  0.07238   23.578  0.14289 -168.975
       2.9640 0.64181  158.167  5.29044   50.552  0.07305   23.409  0.14285 -170.420
      3.00875 0.64233  157.075  5.21591   49.659  0.07324   22.725  0.14247 -172.172
       3.0535 0.64291  155.890  5.14767   48.743  0.07411   22.504  0.14240 -173.551
      3.09825 0.64209  154.660  5.06649   47.775  0.07491   22.360  0.14179 -175.272
       3.1430 0.64371  153.620  5.00681   46.910  0.07560   21.988  0.14198 -176.551
      3.18775 0.64205  152.495  4.92714   46.005  0.07631   21.620  0.14190 -177.935
       3.2325 0.64421  151.422  4.86966   45.107  0.07668   21.404  0.14217 -179.887
      3.27725 0.64380  150.222  4.80161   44.161  0.07726   21.153  0.14197  178.952
       3.3220 0.64445  149.225  4.73884   43.291  0.07809   20.550  0.14194  177.281
      3.36675 0.64426  148.066  4.67248   42.431  0.07889   20.244  0.14157  175.956
       3.4115 0.64473  147.076  4.61217   41.518  0.07926   19.644  0.14248  174.690
      3.45625 0.64572  145.900  4.55402   40.595  0.08014   19.575  0.14233  173.005
       3.5010 0.64740  144.875  4.50170   39.776  0.08095   19.235  0.14275  171.611
      3.54575 0.64715  143.806  4.44161   38.866  0.08150   18.892  0.14260  169.911
       3.5905 0.64797  142.725  4.38775   37.954  0.08228   18.218  0.14330  168.780
      3.63525 0.64895  141.766  4.33883   37.118  0.08235   17.811  0.14365  167.200
       3.6800 0.64947  140.689  4.28484   36.228  0.08365   17.638  0.14348  165.992
      3.72475 0.65028  139.584  4.23276   35.254  0.08412   17.287  0.14402  164.468
       3.7695 0.65088  138.637  4.18673   34.354  0.08487   17.043  0.14424  163.095
      3.81425 0.65127  137.699  4.13268   33.494  0.08539   16.744  0.14506  161.630
       3.8590 0.65117  136.522  4.08357   32.570  0.08580   16.322  0.14568  160.304
      3.90375 0.65301  135.672  4.03773   31.759  0.08699   15.736  0.14606  158.918
       3.9485 0.65237  134.535  3.99273   30.895  0.08756   15.446  0.14628  157.990
      3.99325 0.65486  133.620  3.94980   30.004  0.08831   15.068  0.14640  156.104
       4.0380 0.65439  132.619  3.90574   29.178  0.08883   14.802  0.14819  155.499
      4.08275 0.65546  131.685  3.86213   28.289  0.08974   14.468  0.14776  154.013
       4.1275 0.65663  130.738  3.82392   27.458  0.09020   13.804  0.14890  152.744
      4.17225 0.65709  129.772  3.78251   26.606  0.09132   13.463  0.15032  151.539
       4.2170 0.65737  128.788  3.73841   25.736  0.09167   13.051  0.15055  150.385
      4.26175 0.65908  127.905  3.70154   24.936  0.09292   12.564  0.15275  148.991
       4.3065 0.65973  126.889  3.66248   24.055  0.09252   12.448  0.15241  147.792
      4.35125 0.66027  125.990  3.62268   23.210  0.09339   11.927  0.15490  146.284
       4.3960 0.66138  124.997  3.58632   22.364  0.09385   11.514  0.15584  145.109
      4.44075 0.66229  124.089  3.54884   21.539  0.09474   11.200  0.15553  144.075
       4.4855 0.66397  123.173  3.51273   20.647  0.09531   10.628  0.15736  142.638
      4.53025 0.66399  122.200  3.47983   19.795  0.09601   10.074  0.15834  141.951
       4.5750 0.66502  121.325  3.44170   18.996  0.09659    9.802  0.15901  140.438
      4.61975 0.66655  120.375  3.41275   18.202  0.09712    9.388  0.16137  139.346
       4.6645 0.66763  119.474  3.37527   17.298  0.09811    8.981  0.16180  138.122
      4.70925 0.66876  118.616  3.34622   16.511  0.09851    8.528  0.16406  137.031
       4.7540 0.66921  117.703  3.31100   15.672  0.09938    7.909  0.16426  136.120
      4.79875 0.67040  116.857  3.27825   14.892  0.09998    7.578  0.16634  134.909
       4.8435 0.67150  115.964  3.24717   14.057  0.10060    6.989  0.16828  133.672
      4.88825 0.67424  115.061  3.22076   13.191  0.10154    6.818  0.16847  132.730
       4.9330 0.67496  114.229  3.19000   12.366  0.10182    6.310  0.17032  131.535
      4.97775 0.67572  113.300  3.16082   11.572  0.10256    5.918  0.17160  130.539
       5.0225 0.67696  112.396  3.13019   10.717  0.10308    5.339  0.17308  129.326
      5.06725 0.67856  111.598  3.10059    9.930  0.10406    5.069  0.17476  128.280
       5.1120 0.67738  110.769  3.07123    9.092  0.10435    4.538  0.17603  127.250
      5.15675 0.68072  109.683  3.04447    8.201  0.10485    4.105  0.17801  126.398
       5.2015 0.68166  109.078  3.01928    7.434  0.10561    3.466  0.18015  125.195
      5.24625 0.68343  108.139  2.99170    6.601  0.10642    3.230  0.18072  124.133
       5.2910 0.68422  107.243  2.96270    5.757  0.10759    2.477  0.18304  123.021
      5.33575 0.68532  106.414  2.93858    5.008  0.10727    2.198  0.18441  122.150
       5.3805 0.68804  105.584  2.91603    4.185  0.10865    1.631  0.18634  121.202
      5.42525 0.68752  104.735  2.88427    3.348  0.10921    1.203  0.18802  120.234
       5.4700 0.68944  103.918  2.86384    2.556  0.10963    0.901  0.18965  119.275
      5.51475 0.69075  103.096  2.83653    1.734  0.11014    0.071  0.19215  118.309
       5.5595 0.69255  102.220  2.81331    0.927  0.11084   -0.183  0.19388  117.437
      5.60425 0.69339  101.479  2.78935    0.109  0.11148   -0.637  0.19538  116.233
       5.6490 0.69442  100.675  2.76280   -0.627  0.11195   -1.118  0.19794  115.420
      5.69375 0.69598   99.900  2.74091   -1.480  0.11231   -1.672  0.19897  114.350
       5.7385 0.69731   98.950  2.71802   -2.292  0.11299   -2.069  0.20080  113.486
      5.78325 0.69717   98.322  2.69253   -3.051  0.11399   -2.431  0.20276  112.574
       5.8280 0.70017   97.444  2.67396   -3.827  0.11407   -3.083  0.20427  111.906
      5.87275 0.70071   96.666  2.65250   -4.629  0.11516   -3.386  0.20605  110.915
       5.9175 0.70263   95.873  2.62960   -5.466  0.11591   -3.959  0.20853  110.005
      5.96225 0.70298   94.986  2.60813   -6.316  0.11632   -4.619  0.21106  109.133
       6.0070 0.70614   94.277  2.58926   -7.014  0.11755   -4.983  0.21283  108.495
      6.05175 0.70581   93.518  2.56519   -7.823  0.11779   -5.492  0.21497  107.392
       6.0965 0.70849   92.820  2.54817   -8.541  0.11845   -5.893  0.21741  106.811
      6.14125 0.70896   91.906  2.52364   -9.416  0.11891   -6.354  0.21953  105.861
       6.1860 0.71131   91.136  2.50673  -10.195  0.11955   -6.957  0.22141  105.055
      6.23075 0.71338   90.454  2.48893  -11.002  0.12053   -7.583  0.22428  104.213
       6.2755 0.71380   89.716  2.46452  -11.741  0.12118   -7.816  0.22618  103.379
      6.32025 0.71598   88.827  2.44724  -12.593  0.12128   -8.430  0.22883  102.587
       6.3650 0.71847   88.139  2.42934  -13.346  0.12123   -8.722  0.23031  101.568
      6.40975 0.71830   87.398  2.40785  -14.145  0.12283   -9.264  0.23284  100.804
       6.4545 0.72105   86.709  2.39097  -14.895  0.12293   -9.895  0.23545  100.308
      6.49925 0.72281   85.852  2.37055  -15.663  0.12362  -10.211  0.23696   99.325
       6.5440 0.72422   85.134  2.35434  -16.498  0.12434  -10.983  0.23987   98.546
      6.58875 0.72632   84.437  2.33614  -17.233  0.12450  -11.566  0.24265   97.943
       6.6335 0.72812   83.634  2.31925  -18.050  0.12518  -11.984  0.24461   96.785
      6.67825 0.72935   82.921  2.30092  -18.829  0.12586  -12.458  0.24732   96.364
       6.7230 0.72936   82.123  2.28147  -19.586  0.12628  -12.874  0.24908   95.391
      6.76775 0.73269   81.366  2.26376  -20.408  0.12701  -13.548  0.25179   94.600
       6.8125 0.73317   80.759  2.24687  -21.127  0.12741  -13.942  0.25386   93.834
      6.85725 0.73490   79.910  2.22787  -21.982  0.12803  -14.341  0.25639   92.948
       6.9020 0.73713   79.239  2.21283  -22.700  0.12844  -14.954  0.25893   92.353
      6.94675 0.73901   78.527  2.19683  -23.461  0.12924  -15.634  0.26147   91.725
       6.9915 0.73970   77.791  2.17937  -24.203  0.12949  -16.140  0.26384   90.746
      7.03625 0.74146   77.069  2.16244  -24.967  0.13023  -16.542  0.26625   90.275
       7.0810 0.74200   76.312  2.14550  -25.797  0.13011  -16.870  0.26876   89.252
      7.12575 0.74534   75.660  2.13127  -26.480  0.13107  -17.331  0.27140   88.675
       7.1705 0.74630   75.019  2.11568  -27.256  0.13156  -18.083  0.27451   87.885
      7.21525 0.74803   74.244  2.10007  -28.017  0.13216  -18.502  0.27670   87.216
       7.2600 0.74910   73.561  2.08270  -28.787  0.13213  -19.095  0.27933   86.471
      7.30475 0.75057   72.947  2.06634  -29.501  0.13279  -19.422  0.28177   85.566
       7.3495 0.75292   72.163  2.05356  -30.296  0.13303  -19.977  0.28480   85.056
      7.39425 0.75237   71.519  2.03679  -30.974  0.13376  -20.582  0.28699   84.334
       7.4390 0.75451   70.751  2.02286  -31.768  0.13434  -20.950  0.28979   83.594
      7.48375 0.75747   70.101  2.00827  -32.501  0.13482  -21.551  0.29217   82.773
       7.5285 0.75741   69.480  1.99488  -33.225  0.13534  -21.889  0.29519   82.144
      7.57325 0.75903   68.853  1.97730  -33.992  0.13552  -22.436  0.29783   81.375
       7.6180 0.76063   68.055  1.96375  -34.773  0.13593  -22.936  0.30001   80.742
      7.66275 0.76299   67.477  1.95081  -35.455  0.13666  -23.396  0.30316   80.055
       7.7075 0.76437   66.659  1.93654  -36.240  0.13696  -24.075  0.30587   79.423
      7.75225 0.76620   66.121  1.92397  -36.910  0.13721  -24.465  0.30811   78.587
       7.7970 0.76868   65.396  1.91135  -37.716  0.13780  -25.084  0.31253   78.053
      7.84175 0.76887   64.811  1.89741  -38.442  0.13834  -25.619  0.31366   77.276
       7.8865 0.77169   64.033  1.88361  -39.196  0.13859  -26.007  0.31680   76.468
      7.93125 0.77303   63.391  1.86944  -39.975  0.13926  -26.490  0.31984   76.028
       7.9760 0.77574   62.640  1.85643  -40.736  0.14017  -26.953  0.32087   75.285
      8.02075 0.77638   62.073  1.84470  -41.482  0.14039  -27.590  0.32644   74.547
       8.0655 0.77860   61.346  1.83060  -42.204  0.14041  -28.085  0.32808   74.010
      8.11025 0.77967   60.744  1.81848  -42.911  0.14041  -28.659  0.33088   73.135
       8.1550 0.78125   60.107  1.80410  -43.631  0.14142  -29.062  0.33355   72.654
      8.19975 0.78360   59.321  1.79366  -44.503  0.14160  -29.835  0.33653   71.994
       8.2445 0.78521   58.753  1.77917  -45.164  0.14225  -30.165  0.33899   71.253
      8.28925 0.78625   58.026  1.76744  -45.864  0.14257  -30.743  0.34259   70.694
       8.3340 0.78831   57.441  1.75428  -46.613  0.14265  -31.221  0.34451   69.999
      8.37875 0.78878   56.712  1.73926  -47.392  0.14313  -31.801  0.34819   69.312
       8.4235 0.79078   56.044  1.72843  -48.112  0.14349  -32.346  0.34976   68.578
      8.46825 0.79280   55.449  1.71636  -48.826  0.14403  -32.895  0.35385   68.015
       8.5130 0.79421   54.798  1.70261  -49.602  0.14360  -33.417  0.35673   67.267
      8.55775 0.79602   54.129  1.69069  -50.298  0.14449  -34.082  0.35959   66.601
       8.6025 0.79660   53.513  1.67910  -51.025  0.14454  -34.419  0.36292   65.959
      8.64725 0.79908   52.740  1.66605  -51.791  0.14484  -34.858  0.36497   65.529
       8.6920 0.80095   52.238  1.65517  -52.554  0.14522  -35.722  0.36975   64.625
      8.73675 0.80172   51.475  1.64254  -53.194  0.14533  -35.956  0.37122   64.132
       8.7815 0.80408   50.979  1.63307  -53.910  0.14640  -36.554  0.37460   63.388
      8.82625 0.80532   50.201  1.62037  -54.692  0.14609  -37.150  0.37829   62.766
       8.8710 0.80761   49.677  1.61068  -55.352  0.14664  -37.515  0.37965   62.123
      8.91575 0.80833   49.039  1.59622  -56.047  0.14633  -38.245  0.38256   61.438
       8.9605 0.80914   48.414  1.58726  -56.775  0.14687  -38.730  0.38632   60.853
      9.00525 0.81276   47.810  1.57554  -57.489  0.14716  -39.261  0.38851   60.103
       9.0500 0.81236   47.087  1.56278  -58.201  0.14729  -39.715  0.39261   59.419
      9.09475 0.81609   46.430  1.55287  -58.985  0.14787  -40.487  0.39556   58.912
       9.1395 0.81633   45.872  1.54423  -59.690  0.14804  -40.867  0.39880   58.176
      9.18425 0.81766   45.190  1.53103  -60.401  0.14785  -41.343  0.40130   57.593
       9.2290 0.82081   44.560  1.52130  -61.113  0.14830  -42.163  0.40476   56.929
      9.27375 0.82212   43.959  1.51258  -61.834  0.14824  -42.482  0.40777   56.277
       9.3185 0.82464   43.318  1.50189  -62.518  0.14926  -43.072  0.41140   55.821
      9.36325 0.82555   42.690  1.49014  -63.323  0.14910  -43.486  0.41348   54.943
       9.4080 0.82690   41.957  1.48167  -64.073  0.14933  -44.055  0.41723   54.426
      9.45275 0.82921   41.409  1.47036  -64.685  0.14956  -44.573  0.41920   53.690
       9.4975 0.82966   40.714  1.46004  -65.435  0.14952  -45.156  0.42263   53.189
      9.54225 0.83297   40.108  1.45127  -66.185  0.14972  -45.675  0.42542   52.592
       9.5870 0.83365   39.464  1.44097  -66.881  0.15035  -46.337  0.42820   51.935
      9.63175 0.83391   38.903  1.43011  -67.561  0.15006  -46.740  0.43132   51.288
       9.6765 0.83688   38.218  1.42069  -68.286  0.15047  -47.155  0.43347   50.662
      9.72125 0.83724   37.660  1.41186  -69.003  0.15045  -47.697  0.43716   49.981
       9.7660 0.84020   36.982  1.40118  -69.761  0.15114  -48.280  0.43987   49.571
      9.81075 0.84072   36.393  1.39223  -70.426  0.15093  -48.778  0.44299   48.857
       9.8555 0.84324   35.750  1.38278  -71.132  0.15134  -49.406  0.44586   48.339
      9.90025 0.84404   35.190  1.37220  -71.905  0.15150  -49.942  0.44927   47.626
       9.9450 0.84493   34.522  1.36225  -72.566  0.15150  -50.423  0.45190   47.062
      9.98975 0.84685   33.922  1.35321  -73.337  0.15136  -50.943  0.45502   46.450
      10.0345 0.84858   33.364  1.34457  -73.946  0.15172  -51.589  0.45736   45.907
     10.07925 0.84841   32.731  1.33534  -74.662  0.15162  -52.112  0.46178   45.307
      10.1240 0.85124   32.203  1.32672  -75.448  0.15228  -52.522  0.46330   44.657
     10.16875 0.85177   31.497  1.31747  -76.070  0.15196  -53.021  0.46650   43.982
      10.2135 0.85408   30.970  1.30878  -76.854  0.15180  -53.613  0.46956   43.429
     10.25825 0.85447   30.273  1.29951  -77.592  0.15208  -54.318  0.47226   42.829
      10.3030 0.85609   29.777  1.29055  -78.263  0.15249  -54.722  0.47595   42.312
     10.34775 0.85814   29.167  1.28217  -78.874  0.15245  -55.252  0.47801   41.722
      10.3925 0.85872   28.535  1.27382  -79.612  0.15233  -55.706  0.48069   41.126
     10.43725 0.85941   27.973  1.26469  -80.258  0.15271  -56.366  0.48353   40.528
