! Data provided by Modelithics, Inc.  Tampa, Florida USA, June 2008
!Model SAV-541+
!VAR V_out= 2
!VAR I_out= 60
!VAR V_in= 0.4830
!VAR I_in= 1.0325
!BEGIN ACDATA
# GHZ S MA R 50
! Scattering Parameters
!% F n11x n11y n21x n21y n12x n12y n22x n22y
       0.1000 0.99011  -18.051  27.68341  168.784  0.00840   81.916  0.47354  -15.570
      0.14475 0.97263  -25.256  26.66907  163.267  0.01227   77.838  0.46878  -20.244
       0.1895 0.95975  -32.824  26.25243  158.456  0.01519   73.203  0.45546  -26.165
      0.23425 0.94472  -40.377  25.69970  153.753  0.01885   69.725  0.44136  -32.801
       0.2790 0.92371  -46.752  24.88041  149.015  0.02166   68.173  0.43038  -38.503
      0.32375 0.91556  -54.673  24.22107  144.795  0.02447   63.099  0.41931  -44.422
       0.3685 0.89138  -61.020  23.36276  140.636  0.02679   61.403  0.40188  -49.620
      0.41325 0.87820  -67.259  22.52708  136.770  0.02967   58.054  0.39061  -55.803
       0.4580 0.86462  -72.466  21.65350  133.545  0.03136   56.106  0.38203  -58.969
      0.50275 0.84791  -78.799  20.87158  129.964  0.03355   52.946  0.36925  -64.728
       0.5475 0.83211  -83.439  20.05654  126.906  0.03471   51.485  0.35704  -68.568
      0.59225 0.81288  -88.629  19.22976  123.936  0.03642   50.546  0.34272  -72.445
       0.6370 0.80189  -93.293  18.53130  121.042  0.03774   48.230  0.33816  -76.773
      0.68175 0.79057  -97.771  17.82514  118.429  0.03914   47.001  0.32691  -80.682
       0.7265 0.77646 -102.154  17.12703  115.930  0.04068   46.288  0.31601  -84.431
      0.77125 0.76708 -105.966  16.49857  113.519  0.04124   44.383  0.30541  -87.514
       0.8160 0.75543 -110.031  15.88921  111.182  0.04252   42.951  0.29629  -91.154
      0.86075 0.74758 -113.827  15.32628  108.992  0.04324   41.288  0.28865  -94.666
       0.9055 0.73709 -116.927  14.79653  106.980  0.04434   41.577  0.28088  -97.302
      0.95025 0.73201 -120.664  14.28138  104.922  0.04555   40.599  0.27484 -100.774
       0.9950 0.72241 -123.861  13.80108  103.072  0.04618   39.959  0.26722 -103.855
      1.03975 0.71714 -126.987  13.35252  101.254  0.04679   39.181  0.26276 -106.802
       1.0845 0.70989 -129.861  12.90944   99.427  0.04770   38.104  0.25626 -109.363
      1.12925 0.70419 -132.653  12.51412   97.809  0.04845   37.697  0.24995 -112.049
       1.1740 0.70080 -135.537  12.12440   96.119  0.04937   36.731  0.24491 -114.673
      1.21875 0.69451 -138.129  11.76859   94.531  0.05007   36.866  0.24070 -117.087
       1.2635 0.69046 -140.736  11.41671   92.946  0.05087   36.086  0.23691 -119.708
      1.30825 0.68761 -143.014  11.09806   91.526  0.05149   35.471  0.23212 -122.183
       1.3530 0.68222 -145.440  10.77525   90.049  0.05244   35.157  0.22855 -124.235
      1.39775 0.67991 -147.754  10.48792   88.646  0.05297   34.803  0.22465 -126.995
       1.4425 0.67598 -150.008  10.20519   87.204  0.05310   34.044  0.22266 -129.098
      1.48725 0.67301 -152.169  9.94395   85.901  0.05445   34.036  0.21887 -131.048
       1.5320 0.67078 -154.203  9.68455   84.527  0.05494   33.062  0.21650 -133.575
      1.57675 0.66737 -156.293  9.44631   83.218  0.05576   33.176  0.21395 -135.512
       1.6215 0.66714 -158.202  9.21171   81.977  0.05629   32.544  0.21234 -137.608
      1.66625 0.66332 -160.178  8.98304   80.714  0.05700   32.096  0.20948 -139.951
       1.7110 0.66247 -161.985  8.77696   79.508  0.05750   31.817  0.20729 -141.957
      1.75575 0.66030 -163.801  8.57298   78.311  0.05800   31.613  0.20478 -143.824
       1.8005 0.65646 -165.652  8.37943   77.081  0.05903   31.204  0.20383 -145.623
      1.84525 0.65838 -167.437  8.19972   75.948  0.05955   30.771  0.20173 -147.478
       1.8900 0.65462 -169.050  8.01551   74.779  0.05998   30.472  0.19989 -149.352
      1.93475 0.65427 -170.893  7.84671   73.602  0.06119   30.124  0.19834 -151.002
       1.9795 0.65264 -172.319  7.67878   72.548  0.06160   30.241  0.19704 -153.200
      2.02425 0.65244 -173.997  7.52662   71.444  0.06257   29.567  0.19599 -154.719
       2.0690 0.65013 -175.645  7.36425   70.342  0.06281   29.096  0.19511 -156.548
      2.11375 0.65103 -177.167  7.23026   69.271  0.06371   28.778  0.19303 -158.420
       2.1585 0.64972 -178.547  7.09004   68.244  0.06417   28.627  0.19307 -160.232
      2.20325 0.64917 -179.959  6.95441   67.202  0.06498   28.424  0.19163 -161.801
       2.2480 0.64720  178.459  6.82230   66.184  0.06564   28.154  0.19076 -163.481
      2.29275 0.64782  177.060  6.69238   65.065  0.06634   27.809  0.18992 -165.121
       2.3375 0.64755  175.682  6.57162   64.172  0.06692   27.452  0.18877 -166.635
      2.38225 0.64669  174.244  6.45271   63.025  0.06771   27.149  0.18896 -168.132
       2.4270 0.64821  172.825  6.34081   62.127  0.06833   26.702  0.18750 -169.986
      2.47175 0.64595  171.617  6.23073   61.072  0.06902   26.431  0.18735 -171.178
       2.5165 0.64769  170.161  6.12777   60.115  0.06955   26.042  0.18681 -172.791
      2.56125 0.64578  168.967  6.02521   59.093  0.07059   26.006  0.18670 -174.441
       2.6060 0.64613  167.528  5.92618   58.130  0.07099   25.668  0.18652 -175.730
      2.65075 0.64592  166.374  5.82781   57.145  0.07177   25.117  0.18620 -177.291
       2.6955 0.64603  165.152  5.73793   56.288  0.07255   24.724  0.18622 -178.846
      2.74025 0.64714  163.739  5.64682   55.275  0.07335   24.301  0.18623  179.966
       2.7850 0.64660  162.579  5.55955   54.416  0.07369   24.228  0.18558  178.274
      2.82975 0.64508  161.325  5.47137   53.380  0.07478   23.822  0.18505  177.137
       2.8745 0.64545  160.070  5.39583   52.490  0.07501   23.605  0.18633  175.733
      2.91925 0.64601  159.105  5.30739   51.575  0.07569   23.243  0.18531  174.495
       2.9640 0.64563  157.806  5.23263   50.631  0.07651   22.866  0.18660  173.113
      3.00875 0.64576  156.596  5.15778   49.742  0.07755   22.663  0.18659  171.561
       3.0535 0.64670  155.514  5.09007   48.849  0.07854   22.113  0.18656  170.565
      3.09825 0.64593  154.303  5.00876   47.890  0.07843   21.610  0.18724  169.028
       3.1430 0.64737  153.248  4.94826   46.999  0.07972   21.423  0.18737  167.882
      3.18775 0.64596  152.136  4.87451   46.119  0.07986   21.145  0.18751  166.599
       3.2325 0.64752  151.023  4.81369   45.198  0.08126   20.491  0.18849  164.990
      3.27725 0.64735  149.874  4.74446   44.271  0.08186   20.060  0.18873  164.118
       3.3220 0.64855  148.803  4.68490   43.404  0.08243   19.996  0.18998  162.421
      3.36675 0.64821  147.669  4.61935   42.532  0.08306   19.808  0.18962  161.328
       3.4115 0.64870  146.752  4.55879   41.668  0.08364   19.195  0.19068  160.264
      3.45625 0.64933  145.554  4.50074   40.731  0.08428   18.678  0.19175  158.745
       3.5010 0.65098  144.553  4.44923   39.897  0.08517   18.500  0.19195  157.737
      3.54575 0.65080  143.461  4.38975   38.997  0.08573   18.062  0.19209  156.226
       3.5905 0.65181  142.343  4.33808   38.087  0.08713   17.674  0.19356  155.306
      3.63525 0.65266  141.358  4.28712   37.236  0.08725   17.055  0.19367  154.075
       3.6800 0.65261  140.306  4.23341   36.331  0.08797   16.800  0.19435  152.754
      3.72475 0.65429  139.242  4.18249   35.395  0.08871   16.483  0.19527  151.634
       3.7695 0.65445  138.252  4.13409   34.456  0.08955   16.129  0.19555  150.466
      3.81425 0.65507  137.352  4.08151   33.638  0.09037   15.757  0.19675  149.229
       3.8590 0.65550  136.147  4.03524   32.710  0.09064   15.191  0.19740  147.981
      3.90375 0.65648  135.297  3.98823   31.897  0.09158   14.881  0.19873  146.859
       3.9485 0.65692  134.211  3.94553   31.051  0.09206   14.584  0.19887  145.966
      3.99325 0.65822  133.264  3.90013   30.152  0.09319   14.085  0.19965  144.395
       4.0380 0.65808  132.294  3.85678   29.328  0.09371   13.884  0.20162  143.772
      4.08275 0.65965  131.423  3.81418   28.514  0.09482   13.343  0.20175  142.461
       4.1275 0.66016  130.362  3.77525   27.628  0.09520   12.870  0.20306  141.480
      4.17225 0.66169  129.431  3.73602   26.779  0.09513   12.335  0.20396  140.475
       4.2170 0.66165  128.483  3.69153   25.913  0.09615   11.855  0.20485  139.256
      4.26175 0.66311  127.520  3.65398   25.098  0.09696   11.596  0.20730  138.307
       4.3065 0.66401  126.564  3.61458   24.255  0.09762   11.054  0.20790  137.256
      4.35125 0.66424  125.683  3.57662   23.423  0.09839   10.645  0.20987  136.099
       4.3960 0.66526  124.714  3.53925   22.568  0.09913   10.186  0.21044  135.059
      4.44075 0.66649  123.779  3.50193   21.717  0.09984    9.754  0.21166  134.011
       4.4855 0.66751  122.897  3.46582   20.901  0.10038    9.313  0.21313  133.002
      4.53025 0.66733  121.939  3.43208   20.011  0.10117    9.004  0.21467  132.050
       4.5750 0.66816  121.001  3.39455   19.193  0.10168    8.398  0.21547  130.900
      4.61975 0.67032  120.053  3.36670   18.397  0.10231    8.088  0.21837  130.034
       4.6645 0.67096  119.180  3.32882   17.517  0.10317    7.505  0.21902  128.914
      4.70925 0.67195  118.307  3.29794   16.708  0.10386    6.998  0.22075  127.789
       4.7540 0.67319  117.393  3.26577   15.902  0.10424    6.530  0.22156  126.957
      4.79875 0.67440  116.601  3.23489   15.132  0.10525    6.247  0.22339  125.996
       4.8435 0.67493  115.693  3.20100   14.291  0.10597    5.452  0.22523  125.133
      4.88825 0.67789  114.741  3.17517   13.438  0.10652    5.217  0.22633  124.152
       4.9330 0.67843  113.935  3.14209   12.594  0.10743    4.579  0.22818  123.151
      4.97775 0.67892  112.980  3.11406   11.794  0.10789    4.255  0.22954  122.210
       5.0225 0.68007  112.084  3.08405   10.952  0.10847    3.733  0.23104  121.148
      5.06725 0.68230  111.271  3.05488   10.180  0.10925    3.106  0.23346  120.303
       5.1120 0.68119  110.395  3.02608    9.352  0.10988    2.794  0.23430  119.351
      5.15675 0.68447  109.433  2.99895    8.507  0.11070    2.310  0.23641  118.515
       5.2015 0.68545  108.735  2.97464    7.682  0.11116    1.637  0.23847  117.596
      5.24625 0.68687  107.839  2.94689    6.882  0.11164    1.440  0.23921  116.708
       5.2910 0.68818  106.930  2.91755    6.044  0.11239    0.796  0.24147  115.633
      5.33575 0.68846  106.070  2.89408    5.276  0.11309    0.433  0.24279  114.826
       5.3805 0.69180  105.304  2.87094    4.443  0.11380   -0.287  0.24466  113.974
      5.42525 0.69146  104.393  2.83995    3.629  0.11454   -0.611  0.24663  113.188
       5.4700 0.69271  103.657  2.81929    2.830  0.11528   -0.965  0.24846  112.331
      5.51475 0.69461  102.725  2.79278    2.023  0.11575   -1.601  0.25075  111.384
       5.5595 0.69563  101.940  2.76953    1.255  0.11622   -1.901  0.25320  110.517
      5.60425 0.69662  101.176  2.74350    0.423  0.11691   -2.588  0.25424  109.520
       5.6490 0.69745  100.269  2.71769   -0.357  0.11744   -3.097  0.25710  108.819
      5.69375 0.69923   99.605  2.69645   -1.135  0.11811   -3.460  0.25790  107.790
       5.7385 0.70097   98.623  2.67374   -1.989  0.11869   -3.911  0.25993  107.088
      5.78325 0.70104   98.040  2.65071   -2.678  0.11949   -4.421  0.26179  106.112
       5.8280 0.70298   97.159  2.62833   -3.456  0.12008   -4.832  0.26352  105.464
      5.87275 0.70394   96.354  2.60766   -4.267  0.12082   -5.655  0.26521  104.612
       5.9175 0.70548   95.517  2.58436   -5.099  0.12139   -5.961  0.26738  103.669
      5.96225 0.70714   94.696  2.56605   -5.938  0.12200   -6.543  0.27022  102.902
       6.0070 0.70925   93.941  2.54518   -6.641  0.12303   -7.023  0.27188  102.303
      6.05175 0.70961   93.208  2.52221   -7.449  0.12335   -7.615  0.27404  101.324
       6.0965 0.71167   92.430  2.50427   -8.193  0.12411   -7.972  0.27639  100.753
      6.14125 0.71128   91.584  2.48083   -9.009  0.12470   -8.496  0.27797   99.897
       6.1860 0.71522   90.861  2.46436   -9.775  0.12487   -8.996  0.28077   99.122
      6.23075 0.71639   90.112  2.44473  -10.604  0.12525   -9.624  0.28320   98.235
       6.2755 0.71707   89.405  2.42204  -11.344  0.12580   -9.946  0.28525   97.546
      6.32025 0.71930   88.506  2.40475  -12.164  0.12712  -10.863  0.28799   96.773
       6.3650 0.72164   87.845  2.38638  -12.899  0.12646  -11.235  0.28953   95.898
      6.40975 0.72203   87.039  2.36665  -13.723  0.12790  -11.639  0.29188   95.200
       6.4545 0.72412   86.357  2.34701  -14.465  0.12884  -12.174  0.29480   94.571
      6.49925 0.72541   85.520  2.32621  -15.214  0.12896  -12.600  0.29595   93.780
       6.5440 0.72664   84.802  2.31015  -16.021  0.12957  -13.162  0.29875   92.961
      6.58875 0.72946   84.094  2.29360  -16.795  0.13033  -13.778  0.30122   92.351
       6.6335 0.73122   83.374  2.27640  -17.562  0.13066  -14.287  0.30302   91.487
      6.67825 0.73226   82.629  2.25816  -18.346  0.13120  -14.762  0.30656   90.878
       6.7230 0.73297   81.863  2.23907  -19.071  0.13175  -15.211  0.30727   89.999
      6.76775 0.73557   81.051  2.22191  -19.889  0.13216  -15.744  0.30996   89.286
       6.8125 0.73627   80.421  2.20514  -20.608  0.13221  -16.312  0.31243   88.551
      6.85725 0.73840   79.582  2.18683  -21.451  0.13300  -16.802  0.31446   87.801
       6.9020 0.73965   78.922  2.17062  -22.171  0.13382  -17.271  0.31728   87.165
      6.94675 0.74161   78.243  2.15412  -22.889  0.13391  -17.805  0.31927   86.512
       6.9915 0.74175   77.457  2.13638  -23.635  0.13465  -18.245  0.32241   85.543
      7.03625 0.74386   76.804  2.12071  -24.376  0.13491  -18.946  0.32388   85.115
       7.0810 0.74492   76.046  2.10456  -25.210  0.13532  -19.377  0.32704   84.139
      7.12575 0.74640   75.377  2.08826  -25.877  0.13572  -19.976  0.32931   83.556
       7.1705 0.74909   74.651  2.07348  -26.648  0.13639  -20.412  0.33176   82.885
      7.21525 0.74908   73.834  2.05635  -27.422  0.13698  -20.944  0.33419   82.196
       7.2600 0.75098   73.267  2.04070  -28.177  0.13721  -21.286  0.33669   81.473
      7.30475 0.75329   72.625  2.02615  -28.875  0.13766  -21.874  0.33868   80.704
       7.3495 0.75558   71.849  2.01302  -29.681  0.13807  -22.490  0.34240   80.170
      7.39425 0.75592   71.272  1.99537  -30.322  0.13828  -22.968  0.34420   79.384
       7.4390 0.75746   70.418  1.98109  -31.081  0.13875  -23.612  0.34713   78.569
      7.48375 0.75983   69.791  1.96671  -31.834  0.13939  -24.069  0.34897   77.910
       7.5285 0.75994   69.125  1.95325  -32.546  0.14001  -24.368  0.35193   77.300
      7.57325 0.76150   68.518  1.93658  -33.291  0.13991  -25.207  0.35487   76.551
       7.6180 0.76300   67.737  1.92205  -34.042  0.14064  -25.601  0.35695   75.949
      7.66275 0.76539   67.111  1.90927  -34.726  0.14087  -26.044  0.35954   75.186
       7.7075 0.76603   66.354  1.89505  -35.495  0.14159  -26.425  0.36212   74.690
      7.75225 0.76828   65.796  1.88327  -36.186  0.14217  -27.072  0.36476   73.919
       7.7970 0.76992   65.050  1.86874  -36.985  0.14232  -27.574  0.36803   73.345
      7.84175 0.77058   64.457  1.85547  -37.703  0.14260  -27.983  0.36984   72.484
       7.8865 0.77280   63.659  1.84136  -38.410  0.14325  -28.521  0.37268   71.872
      7.93125 0.77449   63.096  1.82835  -39.166  0.14367  -29.160  0.37552   71.291
       7.9760 0.77695   62.290  1.81547  -39.980  0.14366  -29.735  0.37685   70.641
      8.02075 0.77829   61.726  1.80425  -40.656  0.14428  -30.229  0.38202   69.959
       8.0655 0.78023   60.991  1.79022  -41.390  0.14469  -30.749  0.38330   69.423
      8.11025 0.78127   60.348  1.77709  -42.120  0.14522  -31.201  0.38594   68.619
       8.1550 0.78297   59.732  1.76435  -42.825  0.14547  -31.781  0.38817   68.079
      8.19975 0.78475   58.950  1.75170  -43.628  0.14590  -32.376  0.39077   67.467
       8.2445 0.78698   58.420  1.73848  -44.302  0.14646  -32.842  0.39365   66.776
      8.28925 0.78782   57.658  1.72653  -45.015  0.14616  -33.425  0.39707   66.170
       8.3340 0.78869   57.135  1.71347  -45.673  0.14669  -33.870  0.39836   65.477
      8.37875 0.78987   56.386  1.69906  -46.477  0.14709  -34.459  0.40213   64.821
       8.4235 0.79248   55.740  1.68908  -47.182  0.14725  -34.816  0.40371   64.148
      8.46825 0.79398   55.097  1.67672  -47.904  0.14758  -35.457  0.40787   63.523
       8.5130 0.79490   54.451  1.66192  -48.629  0.14764  -36.189  0.41043   62.854
      8.55775 0.79681   53.708  1.65038  -49.320  0.14832  -36.707  0.41328   62.234
       8.6025 0.79794   53.159  1.63918  -50.074  0.14833  -37.270  0.41607   61.576
      8.64725 0.80115   52.447  1.62719  -50.816  0.14845  -37.663  0.41817   61.140
       8.6920 0.80125   51.946  1.61578  -51.526  0.14906  -38.154  0.42136   60.332
      8.73675 0.80243   51.163  1.60326  -52.199  0.14931  -38.720  0.42446   59.833
       8.7815 0.80499   50.640  1.59370  -52.902  0.14933  -39.201  0.42688   59.113
      8.82625 0.80639   49.897  1.58156  -53.687  0.14961  -39.941  0.42974   58.482
       8.8710 0.80816   49.324  1.57022  -54.313  0.14972  -40.297  0.43206   57.805
      8.91575 0.80878   48.679  1.55836  -54.989  0.14991  -40.779  0.43485   57.175
       8.9605 0.80998   48.037  1.54838  -55.711  0.15010  -41.501  0.43801   56.602
      9.00525 0.81277   47.464  1.53686  -56.399  0.15023  -41.959  0.44057   55.888
       9.0500 0.81273   46.814  1.52416  -57.045  0.15070  -42.557  0.44363   55.241
      9.09475 0.81644   46.134  1.51559  -57.832  0.15090  -43.125  0.44642   54.702
       9.1395 0.81676   45.544  1.50595  -58.579  0.15086  -43.705  0.44991   54.025
      9.18425 0.81824   44.828  1.49328  -59.228  0.15111  -44.255  0.45199   53.488
       9.2290 0.82091   44.222  1.48345  -59.963  0.15135  -44.727  0.45528   52.863
      9.27375 0.82192   43.661  1.47387  -60.615  0.15132  -45.195  0.45762   52.165
       9.3185 0.82484   42.995  1.46371  -61.317  0.15170  -45.933  0.46173   51.653
      9.36325 0.82502   42.342  1.45320  -62.119  0.15194  -46.332  0.46365   50.866
       9.4080 0.82760   41.623  1.44477  -62.844  0.15194  -46.880  0.46635   50.349
      9.45275 0.82905   41.068  1.43371  -63.421  0.15178  -47.342  0.46863   49.679
       9.4975 0.82964   40.426  1.42308  -64.201  0.15267  -47.770  0.47182   49.202
      9.54225 0.83324   39.800  1.41430  -64.926  0.15230  -48.391  0.47390   48.568
       9.5870 0.83318   39.143  1.40474  -65.611  0.15255  -48.958  0.47643   47.915
      9.63175 0.83345   38.598  1.39379  -66.263  0.15262  -49.371  0.47959   47.283
       9.6765 0.83579   37.880  1.38333  -66.980  0.15272  -49.870  0.48188   46.678
      9.72125 0.83717   37.374  1.37568  -67.652  0.15266  -50.570  0.48508   46.061
       9.7660 0.83997   36.619  1.36485  -68.460  0.15295  -51.062  0.48753   45.572
      9.81075 0.84059   36.103  1.35704  -69.053  0.15328  -51.599  0.48966   44.967
       9.8555 0.84356   35.455  1.34747  -69.752  0.15327  -52.210  0.49323   44.375
      9.90025 0.84340   34.878  1.33668  -70.506  0.15338  -52.728  0.49575   43.653
       9.9450 0.84457   34.258  1.32696  -71.149  0.15341  -53.171  0.49832   43.137
      9.98975 0.84582   33.637  1.31882  -71.900  0.15349  -53.763  0.50119   42.615
      10.0345 0.84782   33.041  1.31010  -72.539  0.15340  -54.301  0.50392   41.987
     10.07925 0.84753   32.445  1.30089  -73.202  0.15362  -54.677  0.50745   41.408
      10.1240 0.85004   31.921  1.29168  -73.980  0.15336  -55.340  0.50882   40.778
     10.16875 0.85106   31.180  1.28294  -74.587  0.15341  -55.866  0.51201   40.162
      10.2135 0.85285   30.657  1.27424  -75.335  0.15375  -56.378  0.51422   39.584
     10.25825 0.85355   30.019  1.26501  -76.039  0.15365  -57.004  0.51681   39.000
      10.3030 0.85534   29.475  1.25607  -76.708  0.15416  -57.389  0.52024   38.469
     10.34775 0.85677   28.848  1.24824  -77.334  0.15416  -58.018  0.52238   37.906
      10.3925 0.85784   28.216  1.23989  -78.070  0.15427  -58.389  0.52462   37.308
     10.43725 0.85850   27.676  1.23165  -78.679  0.15406  -59.048  0.52706   36.705
