! Data provided by Modelithics, Inc.  Tampa, Florida USA, June 2008
!Model SAV-541+
!VAR V_out= 2
!VAR I_out= 80
!VAR V_in= 0.5341
!VAR I_in= 1.0849
!BEGIN ACDATA
# GHZ S MA R 50
! Scattering Parameters
!% F n11x n11y n21x n21y n12x n12y n22x n22y
       0.1000 0.99351  -18.474  29.19200  168.409  0.00854   80.262  0.44005  -16.370
      0.14475 0.97181  -25.749  28.10554  162.920  0.01145   79.400  0.44307  -20.859
       0.1895 0.95811  -33.521  27.64695  158.018  0.01473   72.386  0.43048  -27.266
      0.23425 0.94141  -41.065  27.02033  153.245  0.01774   69.125  0.41710  -34.212
       0.2790 0.91997  -47.652  26.11504  148.408  0.02097   67.713  0.40402  -40.259
      0.32375 0.91156  -55.627  25.39527  144.197  0.02328   63.370  0.39405  -46.044
       0.3685 0.88565  -61.939  24.45274  139.992  0.02519   61.850  0.37793  -51.809
      0.41325 0.87216  -68.238  23.52952  136.086  0.02805   58.404  0.36791  -58.068
       0.4580 0.85764  -73.591  22.61011  132.849  0.02940   56.206  0.35879  -61.293
      0.50275 0.84279  -79.767  21.75596  129.238  0.03146   55.317  0.34650  -67.521
       0.5475 0.82546  -84.754  20.89900  126.198  0.03221   52.971  0.33636  -71.083
      0.59225 0.80444  -89.808  19.99586  123.266  0.03358   50.035  0.32256  -75.260
       0.6370 0.79391  -94.506  19.25476  120.373  0.03525   49.523  0.31884  -79.706
      0.68175 0.78123  -98.923  18.50560  117.713  0.03687   47.518  0.30819  -83.571
       0.7265 0.76851 -103.209  17.78223  115.257  0.03839   46.399  0.29828  -87.445
      0.77125 0.75827 -107.024  17.11065  112.889  0.03981   45.437  0.28892  -90.710
       0.8160 0.74669 -111.150  16.45720  110.545  0.04027   44.183  0.28030  -94.378
      0.86075 0.73854 -114.875  15.87326  108.389  0.04153   43.004  0.27318  -98.085
       0.9055 0.72767 -118.019  15.30203  106.395  0.04273   42.743  0.26724 -100.528
      0.95025 0.72333 -121.727  14.78172  104.391  0.04285   41.790  0.26103 -104.299
       0.9950 0.71365 -124.867  14.26302  102.535  0.04395   40.969  0.25430 -107.336
      1.03975 0.70800 -128.091  13.79614  100.679  0.04459   40.454  0.25006 -110.392
       1.0845 0.70158 -130.914  13.33058   98.895  0.04533   39.826  0.24448 -113.001
      1.12925 0.69590 -133.596  12.92576   97.336  0.04621   39.152  0.23881 -115.634
       1.1740 0.69238 -136.485  12.51258   95.671  0.04723   38.380  0.23464 -118.291
      1.21875 0.68612 -139.093  12.15241   94.079  0.04782   38.461  0.23100 -120.624
       1.2635 0.68277 -141.654  11.77980   92.519  0.04848   37.558  0.22727 -123.309
      1.30825 0.67984 -143.907  11.44248   91.148  0.04911   37.387  0.22333 -125.900
       1.3530 0.67393 -146.293  11.10932   89.661  0.05012   37.053  0.22026 -128.088
      1.39775 0.67209 -148.615  10.81433   88.277  0.05086   36.230  0.21650 -130.667
       1.4425 0.66789 -150.823  10.52100   86.851  0.05135   36.064  0.21514 -132.761
      1.48725 0.66429 -152.975  10.24616   85.563  0.05226   36.052  0.21211 -134.795
       1.5320 0.66197 -155.006  9.97379   84.197  0.05275   35.112  0.20963 -137.423
      1.57675 0.65987 -157.009  9.73470   82.940  0.05352   34.796  0.20811 -139.190
       1.6215 0.65893 -159.016  9.48690   81.657  0.05409   34.440  0.20686 -141.304
      1.66625 0.65516 -160.887  9.24732   80.448  0.05462   34.046  0.20431 -143.672
       1.7110 0.65472 -162.708  9.04193   79.225  0.05555   33.783  0.20271 -145.605
      1.75575 0.65264 -164.560  8.82536   78.075  0.05646   33.154  0.20021 -147.423
       1.8005 0.64914 -166.355  8.62725   76.842  0.05688   33.188  0.19964 -149.294
      1.84525 0.65104 -168.095  8.44048   75.728  0.05786   32.900  0.19814 -151.100
       1.8900 0.64676 -169.711  8.24939   74.551  0.05836   32.462  0.19696 -153.029
      1.93475 0.64680 -171.541  8.07725   73.409  0.05921   32.301  0.19535 -154.713
       1.9795 0.64547 -172.947  7.90253   72.391  0.05997   31.880  0.19382 -156.763
      2.02425 0.64466 -174.624  7.74568   71.269  0.06052   31.378  0.19321 -158.404
       2.0690 0.64300 -176.197  7.57844   70.220  0.06114   31.239  0.19273 -160.004
      2.11375 0.64277 -177.755  7.43636   69.138  0.06181   31.005  0.19106 -161.844
       2.1585 0.64308 -179.183  7.29391   68.110  0.06251   30.943  0.19115 -163.591
      2.20325 0.64161  179.449  7.15375   67.102  0.06351   30.344  0.18982 -165.202
       2.2480 0.64034  177.931  7.01709   66.123  0.06407   30.227  0.18901 -166.706
      2.29275 0.64075  176.546  6.88619   64.974  0.06469   29.680  0.18880 -168.448
       2.3375 0.64040  175.131  6.76127   64.066  0.06536   29.714  0.18802 -170.032
      2.38225 0.64020  173.735  6.64278   62.954  0.06609   29.282  0.18807 -171.407
       2.4270 0.64069  172.360  6.52253   62.100  0.06683   28.890  0.18712 -173.243
      2.47175 0.63917  171.108  6.40517   60.995  0.06763   28.604  0.18705 -174.434
       2.5165 0.64075  169.691  6.30198   60.078  0.06843   28.180  0.18640 -176.147
      2.56125 0.63906  168.507  6.19783   59.074  0.06910   27.836  0.18649 -177.512
       2.6060 0.63869  167.131  6.09387   58.150  0.07004   27.440  0.18666 -178.785
      2.65075 0.63886  165.957  5.99141   57.142  0.07071   27.090  0.18591  179.702
       2.6955 0.63931  164.731  5.89970   56.275  0.07131   26.800  0.18615  178.118
      2.74025 0.63976  163.348  5.80400   55.270  0.07213   26.590  0.18675  176.796
       2.7850 0.63967  162.191  5.71261   54.449  0.07274   26.203  0.18562  175.489
      2.82975 0.63836  160.951  5.62725   53.430  0.07365   25.749  0.18575  174.365
       2.8745 0.63910  159.677  5.54905   52.510  0.07399   25.617  0.18689  172.940
      2.91925 0.63898  158.741  5.45936   51.627  0.07525   25.160  0.18583  171.560
       2.9640 0.63892  157.431  5.37822   50.705  0.07582   24.755  0.18747  170.357
      3.00875 0.63894  156.256  5.30318   49.794  0.07645   24.515  0.18778  168.805
       3.0535 0.64030  155.139  5.23335   48.902  0.07727   24.160  0.18781  167.765
      3.09825 0.63901  153.959  5.14884   47.968  0.07797   23.635  0.18855  166.200
       3.1430 0.64037  152.977  5.08633   47.093  0.07870   23.125  0.18876  165.248
      3.18775 0.63912  151.784  5.00752   46.185  0.07951   22.953  0.18932  164.029
       3.2325 0.64096  150.732  4.94892   45.301  0.08016   22.457  0.19028  162.486
      3.27725 0.64074  149.599  4.87520   44.387  0.08086   22.205  0.19044  161.550
       3.3220 0.64162  148.508  4.81683   43.528  0.08207   21.743  0.19202  159.877
      3.36675 0.64137  147.418  4.74708   42.636  0.08215   21.375  0.19176  158.919
       3.4115 0.64158  146.481  4.68467   41.813  0.08311   21.263  0.19309  157.735
      3.45625 0.64250  145.297  4.62463   40.859  0.08379   20.591  0.19403  156.342
       3.5010 0.64478  144.287  4.57322   40.033  0.08463   20.416  0.19412  155.508
      3.54575 0.64409  143.188  4.51132   39.153  0.08528   19.668  0.19440  154.053
       3.5905 0.64529  142.147  4.45805   38.283  0.08606   19.649  0.19577  152.971
      3.63525 0.64590  141.104  4.40424   37.375  0.08697   18.944  0.19618  151.760
       3.6800 0.64584  140.095  4.34809   36.539  0.08757   18.698  0.19691  150.492
      3.72475 0.64809  139.005  4.29922   35.565  0.08805   18.225  0.19786  149.487
       3.7695 0.64788  138.037  4.24842   34.663  0.08909   17.952  0.19817  148.428
      3.81425 0.64880  137.138  4.19613   33.852  0.08952   17.410  0.19976  147.092
       3.8590 0.64924  135.982  4.14762   32.923  0.09038   17.026  0.20046  146.076
      3.90375 0.65007  135.081  4.09639   32.093  0.09081   16.813  0.20148  144.791
       3.9485 0.65012  134.033  4.05244   31.279  0.09195   16.387  0.20219  143.898
      3.99325 0.65148  133.104  4.00683   30.394  0.09289   15.771  0.20290  142.429
       4.0380 0.65202  132.146  3.96502   29.589  0.09343   15.458  0.20457  141.887
      4.08275 0.65320  131.248  3.91750   28.714  0.09439   15.017  0.20487  140.538
       4.1275 0.65408  130.227  3.87973   27.882  0.09480   14.455  0.20626  139.579
      4.17225 0.65540  129.299  3.83778   27.024  0.09506   13.899  0.20748  138.719
       4.2170 0.65516  128.349  3.79292   26.189  0.09585   13.765  0.20853  137.484
      4.26175 0.65627  127.387  3.75341   25.356  0.09700   13.173  0.21067  136.575
       4.3065 0.65752  126.403  3.71425   24.494  0.09761   12.844  0.21108  135.508
      4.35125 0.65732  125.500  3.67279   23.670  0.09817   12.132  0.21355  134.351
       4.3960 0.65875  124.571  3.63301   22.851  0.09899   11.736  0.21381  133.441
      4.44075 0.65980  123.622  3.59691   22.001  0.09965   11.149  0.21505  132.347
       4.4855 0.66217  122.745  3.56109   21.174  0.10027   11.065  0.21632  131.333
      4.53025 0.66155  121.803  3.52607   20.326  0.10099   10.396  0.21843  130.521
       4.5750 0.66265  120.937  3.48883   19.515  0.10169   10.013  0.21915  129.381
      4.61975 0.66401  119.960  3.45871   18.706  0.10255    9.620  0.22192  128.475
       4.6645 0.66537  119.147  3.42071   17.853  0.10357    9.018  0.22227  127.445
      4.70925 0.66600  118.209  3.38887   17.039  0.10388    8.535  0.22401  126.316
       4.7540 0.66697  117.345  3.35366   16.225  0.10471    8.103  0.22533  125.539
      4.79875 0.66842  116.560  3.32089   15.473  0.10514    7.641  0.22714  124.637
       4.8435 0.66916  115.686  3.28914   14.654  0.10624    7.105  0.22914  123.655
      4.88825 0.67163  114.701  3.26242   13.783  0.10679    6.661  0.23046  122.728
       4.9330 0.67250  113.890  3.22928   12.964  0.10717    5.966  0.23183  121.744
      4.97775 0.67373  112.936  3.20095   12.163  0.10823    5.566  0.23332  120.895
       5.0225 0.67403  112.048  3.16889   11.318  0.10861    5.140  0.23509  119.846
      5.06725 0.67740  111.228  3.13951   10.561  0.10961    4.539  0.23713  119.042
       5.1120 0.67528  110.307  3.10881    9.685  0.10993    4.128  0.23855  118.103
      5.15675 0.67819  109.432  3.08043    8.902  0.11092    3.682  0.24041  117.226
       5.2015 0.68032  108.720  3.05764    8.083  0.11129    3.203  0.24238  116.390
      5.24625 0.68060  107.751  3.02645    7.240  0.11250    2.603  0.24318  115.490
       5.2910 0.68256  106.948  2.99791    6.443  0.11281    2.067  0.24602  114.379
      5.33575 0.68306  106.057  2.97323    5.682  0.11301    1.721  0.24705  113.650
       5.3805 0.68624  105.285  2.94985    4.855  0.11411    1.143  0.24929  112.889
      5.42525 0.68574  104.460  2.91700    4.093  0.11482    0.683  0.25086  111.975
       5.4700 0.68748  103.684  2.89527    3.243  0.11576    0.070  0.25299  111.139
      5.51475 0.68895  102.766  2.86910    2.457  0.11605   -0.266  0.25472  110.245
       5.5595 0.68998  101.931  2.84286    1.680  0.11656   -0.790  0.25731  109.439
      5.60425 0.69107  101.147  2.81822    0.849  0.11679   -1.342  0.25846  108.464
       5.6490 0.69236  100.321  2.79246    0.092  0.11809   -1.493  0.26050  107.809
      5.69375 0.69401   99.638  2.76930   -0.702  0.11867   -2.463  0.26215  106.725
       5.7385 0.69516   98.688  2.74641   -1.522  0.11930   -2.703  0.26400  105.966
      5.78325 0.69624   98.084  2.72313   -2.252  0.12019   -3.379  0.26609  105.130
       5.8280 0.69794   97.203  2.70152   -3.000  0.12061   -3.804  0.26747  104.410
      5.87275 0.69841   96.388  2.67965   -3.788  0.12113   -4.033  0.26955  103.659
       5.9175 0.70113   95.656  2.65636   -4.605  0.12181   -4.752  0.27192  102.744
      5.96225 0.70120   94.768  2.63471   -5.455  0.12257   -5.159  0.27406  101.902
       6.0070 0.70436   94.049  2.61481   -6.149  0.12349   -5.878  0.27644  101.475
      6.05175 0.70446   93.264  2.59142   -6.958  0.12366   -6.311  0.27818  100.435
       6.0965 0.70731   92.526  2.57253   -7.708  0.12466   -6.775  0.28043   99.757
      6.14125 0.70694   91.685  2.54887   -8.528  0.12508   -7.465  0.28295   98.999
       6.1860 0.71001   90.926  2.53072   -9.286  0.12580   -7.950  0.28482   98.220
      6.23075 0.71136   90.202  2.51124  -10.080  0.12567   -8.475  0.28736   97.333
       6.2755 0.71216   89.516  2.48759  -10.815  0.12655   -9.200  0.28968   96.678
      6.32025 0.71393   88.599  2.46971  -11.656  0.12755   -9.676  0.29189   95.974
       6.3650 0.71543   87.932  2.44814  -12.363  0.12779  -10.091  0.29369   95.087
      6.40975 0.71702   87.191  2.42963  -13.181  0.12882  -10.679  0.29618   94.366
       6.4545 0.71881   86.454  2.41203  -13.918  0.12912  -11.049  0.29877   93.749
      6.49925 0.72145   85.637  2.39107  -14.694  0.12998  -11.675  0.30076   92.998
       6.5440 0.72187   84.903  2.37263  -15.498  0.12968  -12.276  0.30322   92.114
      6.58875 0.72413   84.190  2.35551  -16.248  0.13077  -12.749  0.30595   91.575
       6.6335 0.72542   83.442  2.33673  -16.989  0.13097  -13.141  0.30732   90.602
      6.67825 0.72709   82.707  2.32030  -17.798  0.13240  -13.746  0.31083   90.099
       6.7230 0.72755   81.958  2.29957  -18.501  0.13229  -14.298  0.31200   89.197
      6.76775 0.73061   81.154  2.28150  -19.325  0.13308  -14.881  0.31457   88.488
       6.8125 0.73121   80.541  2.26310  -20.056  0.13355  -15.522  0.31729   87.768
      6.85725 0.73321   79.705  2.24608  -20.885  0.13357  -15.827  0.31923   87.036
       6.9020 0.73500   79.058  2.22870  -21.555  0.13416  -16.442  0.32135   86.368
      6.94675 0.73659   78.405  2.21322  -22.310  0.13493  -16.899  0.32377   85.767
       6.9915 0.73755   77.570  2.19431  -23.074  0.13513  -17.384  0.32644   84.765
      7.03625 0.73917   76.954  2.17827  -23.795  0.13570  -17.851  0.32832   84.335
       7.0810 0.74027   76.174  2.16187  -24.601  0.13626  -18.558  0.33144   83.415
      7.12575 0.74211   75.518  2.14469  -25.276  0.13703  -18.909  0.33373   82.805
       7.1705 0.74395   74.740  2.12980  -26.078  0.13722  -19.494  0.33650   82.104
      7.21525 0.74573   73.994  2.11212  -26.832  0.13803  -20.261  0.33859   81.490
       7.2600 0.74614   73.378  2.09521  -27.565  0.13789  -20.632  0.34153   80.772
      7.30475 0.74821   72.749  2.07907  -28.271  0.13884  -21.012  0.34325   79.974
       7.3495 0.75065   71.963  2.06726  -29.035  0.13901  -21.523  0.34659   79.482
      7.39425 0.75081   71.330  2.04943  -29.751  0.13875  -22.212  0.34857   78.658
       7.4390 0.75287   70.578  2.03401  -30.472  0.13996  -22.797  0.35143   77.946
      7.48375 0.75442   69.934  2.01910  -31.205  0.14041  -23.227  0.35352   77.255
       7.5285 0.75509   69.245  2.00610  -31.934  0.14062  -23.518  0.35626   76.641
      7.57325 0.75680   68.680  1.98871  -32.647  0.14112  -24.191  0.35931   75.917
       7.6180 0.75826   67.906  1.97391  -33.359  0.14179  -24.689  0.36142   75.311
      7.66275 0.76028   67.287  1.95991  -34.071  0.14225  -25.396  0.36427   74.562
       7.7075 0.76229   66.500  1.94722  -34.847  0.14248  -25.668  0.36695   74.003
      7.75225 0.76394   65.938  1.93318  -35.509  0.14279  -26.343  0.36897   73.318
       7.7970 0.76510   65.154  1.91884  -36.322  0.14319  -26.757  0.37239   72.655
      7.84175 0.76677   64.577  1.90649  -37.034  0.14366  -27.486  0.37484   71.907
       7.8865 0.76877   63.847  1.89225  -37.736  0.14399  -27.920  0.37710   71.188
      7.93125 0.77115   63.210  1.87771  -38.531  0.14465  -28.484  0.38033   70.714
       7.9760 0.77329   62.434  1.86608  -39.305  0.14429  -28.933  0.38092   69.999
      8.02075 0.77371   61.912  1.85213  -39.988  0.14542  -29.355  0.38619   69.328
       8.0655 0.77641   61.152  1.83834  -40.697  0.14588  -30.001  0.38783   68.833
      8.11025 0.77677   60.527  1.82501  -41.416  0.14600  -30.521  0.39022   68.030
       8.1550 0.77867   59.919  1.81160  -42.127  0.14631  -31.059  0.39275   67.527
      8.19975 0.78105   59.090  1.79880  -42.956  0.14649  -31.454  0.39555   66.810
       8.2445 0.78275   58.556  1.78524  -43.605  0.14721  -32.284  0.39807   66.139
      8.28925 0.78347   57.851  1.77262  -44.290  0.14768  -32.747  0.40148   65.632
       8.3340 0.78508   57.287  1.75887  -45.010  0.14768  -33.142  0.40318   64.923
      8.37875 0.78590   56.508  1.74419  -45.785  0.14829  -33.816  0.40679   64.248
       8.4235 0.78904   55.846  1.73338  -46.495  0.14834  -34.252  0.40843   63.533
      8.46825 0.79005   55.240  1.72086  -47.196  0.14916  -34.845  0.41243   62.954
       8.5130 0.79104   54.613  1.70615  -47.937  0.14854  -35.341  0.41487   62.309
      8.55775 0.79269   53.893  1.69358  -48.623  0.14911  -36.170  0.41726   61.625
       8.6025 0.79429   53.324  1.68288  -49.370  0.14972  -36.543  0.42040   60.989
      8.64725 0.79644   52.615  1.66986  -50.074  0.15024  -36.920  0.42267   60.597
       8.6920 0.79757   52.090  1.65876  -50.810  0.15007  -37.603  0.42623   59.755
      8.73675 0.79912   51.320  1.64575  -51.440  0.15032  -38.084  0.42898   59.279
       8.7815 0.80149   50.774  1.63607  -52.178  0.15056  -38.779  0.43087   58.563
      8.82625 0.80219   50.063  1.62365  -52.893  0.15104  -39.371  0.43432   57.902
       8.8710 0.80443   49.466  1.61194  -53.581  0.15066  -39.973  0.43642   57.201
      8.91575 0.80514   48.879  1.59913  -54.239  0.15132  -40.364  0.43864   56.649
       8.9605 0.80638   48.205  1.58993  -54.954  0.15130  -40.791  0.44229   56.072
      9.00525 0.80924   47.664  1.57813  -55.630  0.15176  -41.350  0.44406   55.379
       9.0500 0.80907   46.958  1.56420  -56.334  0.15140  -41.945  0.44795   54.740
      9.09475 0.81276   46.280  1.55484  -57.082  0.15207  -42.520  0.45031   54.180
       9.1395 0.81295   45.755  1.54655  -57.820  0.15215  -43.052  0.45385   53.502
      9.18425 0.81541   44.991  1.53347  -58.474  0.15213  -43.724  0.45619   52.946
       9.2290 0.81740   44.415  1.52435  -59.203  0.15254  -44.195  0.45957   52.292
      9.27375 0.81868   43.814  1.51348  -59.862  0.15211  -44.801  0.46225   51.666
       9.3185 0.82164   43.147  1.50314  -60.540  0.15261  -45.320  0.46569   51.167
      9.36325 0.82244   42.533  1.49226  -61.334  0.15309  -45.690  0.46757   50.379
       9.4080 0.82420   41.819  1.48305  -62.051  0.15269  -46.337  0.47052   49.853
      9.45275 0.82579   41.223  1.47257  -62.677  0.15298  -46.830  0.47258   49.139
       9.4975 0.82634   40.588  1.46088  -63.401  0.15335  -47.452  0.47576   48.630
      9.54225 0.82965   39.938  1.45159  -64.131  0.15348  -47.966  0.47823   48.046
       9.5870 0.82982   39.401  1.44163  -64.819  0.15392  -48.432  0.48064   47.419
      9.63175 0.83121   38.764  1.43135  -65.464  0.15373  -48.934  0.48334   46.801
       9.6765 0.83346   38.073  1.42148  -66.176  0.15350  -49.361  0.48560   46.190
      9.72125 0.83360   37.581  1.41245  -66.840  0.15367  -49.980  0.48894   45.509
       9.7660 0.83659   36.817  1.40174  -67.642  0.15404  -50.584  0.49135   45.087
      9.81075 0.83722   36.297  1.39283  -68.239  0.15422  -51.056  0.49433   44.468
       9.8555 0.84021   35.600  1.38399  -68.982  0.15430  -51.657  0.49678   43.852
      9.90025 0.84020   35.056  1.37310  -69.658  0.15413  -52.168  0.49963   43.196
       9.9450 0.84163   34.409  1.36287  -70.346  0.15442  -52.629  0.50219   42.722
      9.98975 0.84297   33.792  1.35420  -71.079  0.15435  -53.323  0.50549   42.115
      10.0345 0.84488   33.250  1.34508  -71.712  0.15438  -53.789  0.50787   41.511
     10.07925 0.84456   32.610  1.33550  -72.376  0.15463  -54.240  0.51102   40.964
      10.1240 0.84720   32.066  1.32647  -73.150  0.15476  -54.814  0.51284   40.350
     10.16875 0.84774   31.426  1.31770  -73.748  0.15519  -55.425  0.51582   39.748
      10.2135 0.85015   30.826  1.30799  -74.517  0.15464  -55.828  0.51827   39.137
     10.25825 0.85074   30.199  1.29962  -75.187  0.15472  -56.440  0.52114   38.562
      10.3030 0.85279   29.682  1.29068  -75.880  0.15492  -56.879  0.52444   38.055
     10.34775 0.85407   29.058  1.28260  -76.488  0.15542  -57.452  0.52616   37.465
      10.3925 0.85542   28.432  1.27388  -77.207  0.15489  -57.914  0.52827   36.850
     10.43725 0.85588   27.916  1.26524  -77.830  0.15521  -58.700  0.53095   36.284
