! Data provided by Modelithics, Inc.  Tampa, Florida USA, June 2008
!Model SAV-541+
!VAR V_out= 3
!VAR I_out= 80
!VAR V_in= 0.5163
!VAR I_in= 0.9921
!BEGIN ACDATA
# GHZ S MA R 50
! Scattering Parameters
!% F n11x n11y n21x n21y n12x n12y n22x n22y
       0.1000 0.99035  -18.294  29.35971  168.371  0.00810   84.415  0.47807  -16.410
      0.14475 0.97156  -25.871  28.19351  162.780  0.01141   79.068  0.47290  -19.834
       0.1895 0.95643  -33.573  27.70721  157.879  0.01420   73.153  0.45854  -25.701
      0.23425 0.94147  -41.277  27.09014  153.086  0.01774   69.880  0.44289  -32.123
       0.2790 0.91990  -47.884  26.17689  148.276  0.02024   66.188  0.42960  -37.629
      0.32375 0.90917  -55.827  25.44646  144.056  0.02365   62.178  0.42095  -43.319
       0.3685 0.88553  -62.167  24.48407  139.776  0.02538   61.536  0.39878  -48.196
      0.41325 0.87227  -68.274  23.57324  135.961  0.02712   57.629  0.38830  -53.822
       0.4580 0.85606  -73.678  22.63392  132.718  0.02941   56.829  0.37858  -57.148
      0.50275 0.84150  -79.979  21.78400  129.138  0.03151   54.623  0.36291  -62.690
       0.5475 0.82175  -84.707  20.91039  126.062  0.03297   53.674  0.35232  -66.484
      0.59225 0.80392  -89.939  20.01527  123.121  0.03401   49.964  0.33654  -69.936
       0.6370 0.79323  -94.613  19.26619  120.251  0.03490   49.251  0.33033  -74.177
      0.68175 0.78350  -99.023  18.52817  117.621  0.03707   47.329  0.31809  -77.730
       0.7265 0.76928 -103.416  17.79348  115.114  0.03706   46.010  0.30699  -81.234
      0.77125 0.75722 -107.199  17.11181  112.747  0.03855   45.264  0.29531  -84.248
       0.8160 0.74713 -111.316  16.47502  110.428  0.03975   44.032  0.28564  -87.609
      0.86075 0.73837 -115.017  15.87240  108.252  0.04027   42.757  0.27718  -91.126
       0.9055 0.72810 -118.115  15.31221  106.277  0.04115   42.653  0.26952  -93.367
      0.95025 0.72269 -121.859  14.77773  104.228  0.04218   40.910  0.26250  -96.709
       0.9950 0.71365 -124.972  14.26969  102.378  0.04311   40.320  0.25432  -99.506
      1.03975 0.70693 -128.173  13.79822  100.587  0.04365   40.855  0.24844 -102.306
       1.0845 0.70022 -131.003  13.33000   98.782  0.04467   39.371  0.24204 -104.898
      1.12925 0.69558 -133.691  12.92594   97.223  0.04537   38.844  0.23520 -107.478
       1.1740 0.69157 -136.588  12.52412   95.524  0.04620   38.312  0.22967 -109.948
      1.21875 0.68621 -139.216  12.15042   93.935  0.04662   37.797  0.22574 -112.121
       1.2635 0.68252 -141.759  11.78648   92.390  0.04766   37.388  0.22051 -114.692
      1.30825 0.67886 -143.975  11.44294   90.993  0.04848   36.723  0.21555 -117.006
       1.3530 0.67408 -146.434  11.12284   89.503  0.04908   36.413  0.21176 -119.194
      1.39775 0.67158 -148.708  10.81704   88.168  0.04973   36.299  0.20701 -121.664
       1.4425 0.66746 -150.945  10.52495   86.715  0.05047   35.628  0.20487 -123.705
      1.48725 0.66495 -153.122  10.24999   85.427  0.05051   35.346  0.20082 -125.665
       1.5320 0.66181 -155.106  9.98219   84.031  0.05157   34.858  0.19738 -128.116
      1.57675 0.65967 -157.128  9.73985   82.795  0.05234   34.603  0.19536 -130.021
       1.6215 0.65869 -159.111  9.49192   81.527  0.05278   34.427  0.19317 -132.084
      1.66625 0.65504 -160.985  9.25633   80.304  0.05337   34.021  0.19002 -134.505
       1.7110 0.65418 -162.841  9.04534   79.084  0.05395   33.692  0.18731 -136.262
      1.75575 0.65262 -164.601  8.83313   77.933  0.05466   33.155  0.18453 -138.170
       1.8005 0.64863 -166.444  8.63268   76.693  0.05525   33.139  0.18318 -139.994
      1.84525 0.64996 -168.209  8.44387   75.568  0.05631   32.847  0.18114 -141.829
       1.8900 0.64636 -169.839  8.25691   74.376  0.05683   32.531  0.17913 -143.844
      1.93475 0.64677 -171.591  8.08325   73.267  0.05769   32.300  0.17729 -145.423
       1.9795 0.64509 -173.035  7.90945   72.238  0.05822   31.729  0.17511 -147.500
      2.02425 0.64480 -174.702  7.75467   71.114  0.05890   31.453  0.17406 -149.189
       2.0690 0.64247 -176.290  7.58141   70.068  0.05928   31.128  0.17307 -150.898
      2.11375 0.64264 -177.796  7.44309   68.971  0.05997   30.729  0.17069 -152.835
       2.1585 0.64239 -179.215  7.30360   67.939  0.06052   30.418  0.17016 -154.559
      2.20325 0.64142  179.393  7.15887   66.924  0.06177   30.258  0.16848 -156.220
       2.2480 0.63977  177.842  7.02244   65.914  0.06249   29.991  0.16759 -157.916
      2.29275 0.64044  176.465  6.89198   64.800  0.06299   29.522  0.16676 -159.597
       2.3375 0.64004  175.126  6.76852   63.916  0.06357   29.326  0.16530 -161.234
      2.38225 0.63919  173.633  6.64176   62.772  0.06426   29.198  0.16504 -162.693
       2.4270 0.64063  172.271  6.52840   61.907  0.06515   28.749  0.16351 -164.651
      2.47175 0.63851  171.037  6.41143   60.832  0.06551   28.581  0.16321 -165.914
       2.5165 0.63997  169.665  6.30756   59.904  0.06663   27.919  0.16235 -167.602
      2.56125 0.63865  168.460  6.20461   58.895  0.06702   27.632  0.16212 -169.172
       2.6060 0.63860  167.035  6.10195   57.946  0.06799   27.715  0.16165 -170.518
      2.65075 0.63841  165.973  5.99869   56.974  0.06871   27.353  0.16102 -172.219
       2.6955 0.63873  164.642  5.90580   56.093  0.06947   26.919  0.16112 -173.734
      2.74025 0.63985  163.245  5.81251   55.076  0.06979   26.572  0.16096 -175.108
       2.7850 0.63925  162.123  5.72106   54.233  0.07082   26.428  0.16008 -176.750
      2.82975 0.63835  160.861  5.63466   53.236  0.07136   25.824  0.15981 -177.867
       2.8745 0.63884  159.635  5.55817   52.331  0.07227   25.696  0.16061 -179.441
      2.91925 0.63880  158.692  5.46394   51.435  0.07278   25.323  0.15936  179.303
       2.9640 0.63861  157.356  5.38934   50.502  0.07331   24.719  0.16034  177.837
      3.00875 0.63899  156.168  5.31013   49.576  0.07428   24.645  0.16048  176.231
       3.0535 0.63954  155.104  5.23891   48.694  0.07490   24.266  0.16053  174.930
      3.09825 0.63850  153.871  5.15548   47.762  0.07585   24.074  0.16062  173.318
       3.1430 0.64002  152.904  5.09303   46.876  0.07622   23.361  0.16145  172.260
      3.18775 0.63868  151.745  5.01634   45.975  0.07734   23.117  0.16134  170.974
       3.2325 0.64155  150.647  4.95970   45.088  0.07798   22.851  0.16165  169.288
      3.27725 0.64048  149.515  4.88339   44.166  0.07868   22.494  0.16174  168.375
       3.3220 0.64174  148.516  4.82563   43.313  0.07980   22.046  0.16313  166.536
      3.36675 0.64115  147.319  4.75626   42.421  0.08010   21.913  0.16282  165.237
       3.4115 0.64145  146.411  4.69258   41.549  0.08081   21.307  0.16418  164.071
      3.45625 0.64292  145.238  4.63585   40.621  0.08148   21.174  0.16379  162.787
       3.5010 0.64352  144.193  4.57715   39.782  0.08238   20.696  0.16447  161.749
      3.54575 0.64389  143.161  4.51907   38.923  0.08295   20.224  0.16456  160.114
       3.5905 0.64523  142.087  4.46476   38.015  0.08356   19.741  0.16597  158.883
      3.63525 0.64561  141.026  4.41273   37.127  0.08400   19.075  0.16615  157.784
       3.6800 0.64554  139.983  4.35625   36.278  0.08510   19.016  0.16684  156.406
      3.72475 0.64754  138.964  4.30734   35.325  0.08556   18.346  0.16769  155.184
       3.7695 0.64785  137.912  4.25675   34.537  0.08606   18.201  0.16796  153.965
      3.81425 0.64792  137.094  4.20171   33.721  0.08733   17.867  0.16883  152.684
       3.8590 0.64814  135.927  4.15348   32.819  0.08787   17.292  0.16947  151.508
      3.90375 0.65013  135.010  4.10636   31.831  0.08849   16.851  0.17026  150.180
       3.9485 0.64978  134.041  4.06025   31.031  0.08958   16.563  0.17122  149.317
      3.99325 0.65177  133.005  4.01495   30.112  0.09044   16.130  0.17132  147.562
       4.0380 0.65158  132.034  3.97144   29.283  0.09040   15.671  0.17341  146.925
      4.08275 0.65223  131.141  3.92612   28.459  0.09139   15.521  0.17352  145.622
       4.1275 0.65311  130.175  3.88612   27.586  0.09233   15.081  0.17468  144.600
      4.17225 0.65439  129.238  3.84623   26.729  0.09286   14.622  0.17617  143.521
       4.2170 0.65490  128.288  3.80067   25.896  0.09358   14.021  0.17636  142.446
      4.26175 0.65606  127.337  3.76273   25.071  0.09476   13.416  0.17892  141.283
       4.3065 0.65742  126.329  3.72133   24.192  0.09469   13.162  0.17923  140.102
      4.35125 0.65757  125.425  3.68362   23.389  0.09540   12.582  0.18127  139.012
       4.3960 0.65823  124.560  3.64363   22.590  0.09638   12.320  0.18176  137.837
      4.44075 0.65925  123.669  3.60489   21.732  0.09698   11.984  0.18273  136.881
       4.4855 0.66128  122.680  3.56899   20.845  0.09731   11.508  0.18411  135.604
      4.53025 0.66129  121.753  3.53523   20.010  0.09826   10.785  0.18597  134.823
       4.5750 0.66228  120.828  3.49737   19.199  0.09894   10.451  0.18688  133.554
      4.61975 0.66407  119.918  3.46819   18.427  0.09953   10.092  0.18909  132.608
       4.6645 0.66443  119.009  3.42909   17.522  0.10047    9.440  0.19038  131.645
      4.70925 0.66612  118.149  3.39816   16.729  0.10104    8.962  0.19211  130.214
       4.7540 0.66633  117.256  3.36296   15.901  0.10196    8.893  0.19269  129.573
      4.79875 0.66826  116.449  3.33066   15.132  0.10221    8.286  0.19449  128.500
       4.8435 0.66882  115.545  3.29878   14.293  0.10332    7.785  0.19609  127.587
      4.88825 0.67154  114.592  3.27209   13.430  0.10365    7.541  0.19736  126.541
       4.9330 0.67227  113.787  3.23860   12.632  0.10475    6.563  0.19921  125.555
      4.97775 0.67288  112.856  3.20914   11.815  0.10529    6.222  0.19998  124.546
       5.0225 0.67417  112.011  3.17899   10.996  0.10585    5.958  0.20189  123.545
      5.06725 0.67636  111.148  3.14916   10.213  0.10653    5.360  0.20389  122.563
       5.1120 0.67547  110.346  3.12011    9.382  0.10704    4.967  0.20545  121.679
      5.15675 0.67804  109.295  3.09018    8.505  0.10770    4.398  0.20747  120.747
       5.2015 0.67938  108.651  3.06583    7.752  0.10857    4.002  0.20903  119.763
      5.24625 0.68098  107.702  3.03732    6.897  0.10932    3.530  0.21000  118.792
       5.2910 0.68177  106.795  3.00832    6.078  0.10963    2.949  0.21242  117.694
      5.33575 0.68238  106.017  2.98191    5.308  0.11008    2.392  0.21399  116.938
       5.3805 0.68580  105.217  2.96006    4.496  0.11099    2.068  0.21592  116.183
      5.42525 0.68526  104.329  2.92757    3.686  0.11214    1.545  0.21751  115.243
       5.4700 0.68731  103.561  2.90664    2.858  0.11233    0.976  0.21920  114.254
      5.51475 0.68818  102.668  2.87794    2.053  0.11295    0.699  0.22183  113.403
       5.5595 0.68927  101.914  2.85403    1.308  0.11355    0.163  0.22320  112.534
      5.60425 0.69087  101.063  2.82965    0.453  0.11391   -0.239  0.22517  111.525
       5.6490 0.69187  100.284  2.80323   -0.288  0.11495   -0.965  0.22769  110.782
      5.69375 0.69385   99.552  2.77898   -1.113  0.11540   -1.498  0.22894  109.748
       5.7385 0.69497   98.582  2.75722   -1.913  0.11612   -1.762  0.23102  109.022
      5.78325 0.69528   97.963  2.73326   -2.656  0.11697   -2.407  0.23262  108.095
       5.8280 0.69778   97.093  2.71251   -3.441  0.11761   -2.895  0.23420  107.328
      5.87275 0.69811   96.286  2.69001   -4.247  0.11837   -3.311  0.23626  106.473
       5.9175 0.70029   95.556  2.66702   -5.033  0.11894   -3.973  0.23830  105.668
      5.96225 0.70019   94.708  2.64505   -5.864  0.11993   -4.331  0.24084  104.775
       6.0070 0.70368   93.927  2.62594   -6.615  0.12052   -5.078  0.24332  104.279
      6.05175 0.70368   93.126  2.60103   -7.417  0.12090   -5.322  0.24471  103.133
       6.0965 0.70667   92.460  2.58479   -8.126  0.12134   -5.868  0.24713  102.665
      6.14125 0.70698   91.561  2.55941   -8.994  0.12200   -6.446  0.24921  101.697
       6.1860 0.70949   90.805  2.54270   -9.760  0.12272   -6.905  0.25163  100.934
      6.23075 0.71082   90.099  2.52203  -10.536  0.12334   -7.450  0.25456  100.046
       6.2755 0.71182   89.434  2.49942  -11.299  0.12418   -7.960  0.25607   99.323
      6.32025 0.71391   88.498  2.48057  -12.157  0.12478   -8.638  0.25909   98.572
       6.3650 0.71532   87.810  2.46143  -12.872  0.12522   -8.990  0.26093   97.880
      6.40975 0.71610   87.099  2.44031  -13.649  0.12576   -9.701  0.26349   97.037
       6.4545 0.71905   86.317  2.42331  -14.454  0.12621  -10.029  0.26581   96.341
      6.49925 0.72037   85.485  2.40077  -15.205  0.12669  -10.547  0.26757   95.500
       6.5440 0.72205   84.820  2.38491  -16.027  0.12666  -11.195  0.27075   94.626
      6.58875 0.72385   84.094  2.36731  -16.745  0.12775  -11.623  0.27265   94.089
       6.6335 0.72616   83.364  2.34986  -17.550  0.12864  -12.169  0.27453   93.142
      6.67825 0.72743   82.603  2.33067  -18.308  0.12912  -12.526  0.27808   92.507
       6.7230 0.72804   81.790  2.31165  -19.086  0.12934  -13.139  0.27913   91.742
      6.76775 0.73039   81.059  2.29424  -19.867  0.13000  -13.569  0.28216   90.926
       6.8125 0.73150   80.395  2.27766  -20.614  0.13057  -14.179  0.28438   90.292
      6.85725 0.73369   79.600  2.25745  -21.435  0.13113  -14.845  0.28635   89.535
       6.9020 0.73554   78.943  2.24094  -22.133  0.13160  -15.231  0.28892   88.827
      6.94675 0.73679   78.227  2.22480  -22.885  0.13171  -15.733  0.29113   88.070
       6.9915 0.73733   77.511  2.20724  -23.648  0.13246  -16.260  0.29401   87.235
      7.03625 0.73917   76.845  2.19103  -24.369  0.13323  -16.729  0.29610   86.840
       7.0810 0.73996   76.051  2.17281  -25.198  0.13312  -17.444  0.29945   85.826
      7.12575 0.74189   75.411  2.15696  -25.903  0.13403  -17.803  0.30132   85.232
       7.1705 0.74406   74.699  2.14261  -26.629  0.13442  -18.368  0.30434   84.525
      7.21525 0.74580   73.960  2.12660  -27.411  0.13539  -18.779  0.30631   83.937
       7.2600 0.74650   73.307  2.10707  -28.169  0.13539  -19.361  0.30938   83.120
      7.30475 0.74859   72.666  2.09281  -28.872  0.13596  -19.968  0.31114   82.358
       7.3495 0.75093   71.899  2.07885  -29.656  0.13624  -20.503  0.31468   81.735
      7.39425 0.75086   71.304  2.06223  -30.291  0.13676  -20.928  0.31640   81.019
       7.4390 0.75281   70.489  2.04693  -31.115  0.13733  -21.348  0.31952   80.280
      7.48375 0.75532   69.823  2.03311  -31.838  0.13737  -22.057  0.32160   79.530
       7.5285 0.75577   69.203  2.01986  -32.595  0.13835  -22.497  0.32469   78.915
      7.57325 0.75780   68.592  2.00261  -33.286  0.13822  -23.005  0.32732   78.178
       7.6180 0.75887   67.818  1.98761  -34.058  0.13930  -23.444  0.33015   77.634
      7.66275 0.76118   67.263  1.97446  -34.738  0.13965  -23.912  0.33271   76.869
       7.7075 0.76266   66.411  1.96012  -35.535  0.13990  -24.496  0.33553   76.297
      7.75225 0.76449   65.866  1.94709  -36.193  0.14037  -25.111  0.33782   75.492
       7.7970 0.76648   65.113  1.93278  -37.016  0.14112  -25.695  0.34223   74.957
      7.84175 0.76660   64.557  1.91899  -37.706  0.14098  -26.019  0.34320   74.169
       7.8865 0.76922   63.772  1.90460  -38.447  0.14194  -26.603  0.34624   73.463
      7.93125 0.77105   63.169  1.89150  -39.236  0.14222  -27.063  0.34888   72.982
       7.9760 0.77338   62.382  1.87937  -40.025  0.14211  -27.619  0.35061   72.270
      8.02075 0.77415   61.836  1.86561  -40.697  0.14280  -28.124  0.35529   71.559
       8.0655 0.77639   61.117  1.85146  -41.400  0.14328  -28.580  0.35658   71.049
      8.11025 0.77768   60.496  1.83933  -42.150  0.14379  -29.186  0.35933   70.258
       8.1550 0.77913   59.872  1.82442  -42.858  0.14423  -29.670  0.36234   69.634
      8.19975 0.78166   59.050  1.81291  -43.694  0.14473  -30.305  0.36477   69.078
       8.2445 0.78358   58.518  1.79877  -44.372  0.14482  -30.789  0.36749   68.344
      8.28925 0.78327   57.794  1.78618  -45.050  0.14501  -31.353  0.37047   67.747
       8.3340 0.78553   57.219  1.77317  -45.769  0.14549  -31.883  0.37304   67.058
      8.37875 0.78643   56.482  1.75832  -46.558  0.14599  -32.436  0.37670   66.491
       8.4235 0.78961   55.851  1.74691  -47.255  0.14627  -32.990  0.37834   65.646
      8.46825 0.79074   55.207  1.73487  -47.989  0.14662  -33.593  0.38224   65.114
       8.5130 0.79247   54.572  1.72002  -48.745  0.14689  -34.010  0.38517   64.502
      8.55775 0.79387   53.853  1.70807  -49.419  0.14733  -34.623  0.38776   63.802
       8.6025 0.79533   53.277  1.69664  -50.164  0.14740  -35.197  0.39041   63.122
      8.64725 0.79751   52.554  1.68448  -50.917  0.14769  -35.630  0.39274   62.638
       8.6920 0.79790   52.056  1.67160  -51.603  0.14789  -36.217  0.39632   61.908
      8.73675 0.79913   51.258  1.65895  -52.310  0.14776  -36.771  0.39907   61.352
       8.7815 0.80231   50.759  1.65050  -53.026  0.14861  -37.389  0.40196   60.649
      8.82625 0.80374   49.962  1.63801  -53.747  0.14851  -37.912  0.40512   60.009
       8.8710 0.80556   49.423  1.62638  -54.446  0.14912  -38.518  0.40757   59.328
      8.91575 0.80642   48.773  1.61260  -55.118  0.14880  -38.877  0.40994   58.725
       8.9605 0.80736   48.170  1.60361  -55.835  0.14935  -39.588  0.41323   58.102
      9.00525 0.81108   47.591  1.59249  -56.524  0.14959  -39.920  0.41546   57.460
       9.0500 0.81023   46.884  1.57804  -57.212  0.14985  -40.577  0.41928   56.730
      9.09475 0.81409   46.256  1.56909  -57.997  0.15005  -41.152  0.42207   56.199
       9.1395 0.81391   45.648  1.55863  -58.717  0.15006  -41.585  0.42575   55.538
      9.18425 0.81613   44.934  1.54659  -59.427  0.15054  -42.142  0.42796   55.011
       9.2290 0.81860   44.347  1.53703  -60.119  0.15110  -42.843  0.43156   54.395
      9.27375 0.81964   43.781  1.52699  -60.781  0.15058  -43.233  0.43392   53.646
       9.3185 0.82210   43.071  1.51658  -61.494  0.15125  -43.984  0.43824   53.153
      9.36325 0.82318   42.438  1.50474  -62.286  0.15120  -44.274  0.43976   52.371
       9.4080 0.82498   41.779  1.49651  -62.991  0.15131  -45.105  0.44314   51.834
      9.45275 0.82694   41.164  1.48460  -63.637  0.15141  -45.429  0.44514   51.153
       9.4975 0.82784   40.541  1.47552  -64.368  0.15190  -45.864  0.44838   50.676
      9.54225 0.83107   39.903  1.46550  -65.097  0.15191  -46.455  0.45107   50.049
       9.5870 0.83135   39.302  1.45553  -65.778  0.15219  -46.987  0.45318   49.429
      9.63175 0.83144   38.657  1.44331  -66.465  0.15203  -47.599  0.45648   48.742
       9.6765 0.83402   38.001  1.43379  -67.175  0.15279  -48.041  0.45883   48.176
      9.72125 0.83599   37.501  1.42510  -67.896  0.15276  -48.732  0.46264   47.507
       9.7660 0.83842   36.754  1.41483  -68.650  0.15263  -49.144  0.46470   47.064
      9.81075 0.83979   36.220  1.40611  -69.276  0.15263  -49.682  0.46755   46.456
       9.8555 0.84162   35.516  1.39658  -70.029  0.15286  -50.317  0.47055   45.844
      9.90025 0.84212   35.016  1.38596  -70.697  0.15351  -50.908  0.47341   45.159
       9.9450 0.84318   34.319  1.37527  -71.395  0.15319  -51.287  0.47609   44.588
      9.98975 0.84443   33.738  1.36585  -72.134  0.15341  -51.904  0.47957   43.975
      10.0345 0.84615   33.142  1.35725  -72.806  0.15332  -52.425  0.48216   43.414
     10.07925 0.84605   32.549  1.34730  -73.437  0.15343  -52.946  0.48563   42.905
      10.1240 0.84966   32.040  1.33833  -74.211  0.15387  -53.416  0.48732   42.224
     10.16875 0.84960   31.279  1.32953  -74.841  0.15329  -54.164  0.49044   41.589
      10.2135 0.85186   30.779  1.31971  -75.605  0.15368  -54.476  0.49329   41.008
     10.25825 0.85270   30.100  1.31094  -76.273  0.15349  -55.267  0.49610   40.403
      10.3030 0.85395   29.550  1.30183  -76.964  0.15394  -55.602  0.49908   39.911
     10.34775 0.85591   28.997  1.29354  -77.564  0.15417  -56.043  0.50159   39.352
      10.3925 0.85731   28.340  1.28559  -78.325  0.15417  -56.808  0.50398   38.740
     10.43725 0.85808   27.767  1.27721  -79.044  0.15411  -57.348  0.50649   38.137
