! S-parameter export from POSTFEKO
! Filename: cloverleaf_ground_spherical_standard
! Creation date: 2020-01-14 17:23:47
! 
# Hz S MA R    1.0000000E+02 
  1.5000000E+09     1.5705524E-01     2.8860802E+01   
  1.5151515E+09     1.6947276E-01     3.0934396E+01   
  1.5303030E+09     1.8209083E-01     3.2507925E+01   
  1.5454545E+09     1.9480038E-01     3.3683659E+01   
  1.5606061E+09     2.0748259E-01     3.4532408E+01   
  1.5757576E+09     2.2006766E-01     3.5117674E+01   
  1.5909091E+09     2.3249745E-01     3.5488824E+01   
  1.6060606E+09     2.4472748E-01     3.5684935E+01   
  1.6212121E+09     2.5672320E-01     3.5737824E+01   
  1.6363636E+09     2.6844351E-01     3.5670949E+01   
  1.6515152E+09     2.7987254E-01     3.5506069E+01   
  1.6666667E+09     2.9099779E-01     3.5260502E+01   
  1.6818182E+09     3.0179751E-01     3.4947271E+01   
  1.6969697E+09     3.1227312E-01     3.4579119E+01   
  1.7121212E+09     3.2240916E-01     3.4164463E+01   
  1.7272727E+09     3.3220540E-01     3.3711946E+01   
  1.7424242E+09     3.4165644E-01     3.3227820E+01   
  1.7575758E+09     3.5076289E-01     3.2717995E+01   
  1.7727273E+09     3.5951744E-01     3.2186599E+01   
  1.7878788E+09     3.6794390E-01     3.1639602E+01   
  1.8030303E+09     3.7601394E-01     3.1078113E+01   
  1.8181818E+09     3.8375016E-01     3.0506869E+01   
  1.8333333E+09     3.9115223E-01     2.9928319E+01   
  1.8484848E+09     3.9821362E-01     2.9344168E+01   
  1.8636364E+09     4.0494737E-01     2.8757281E+01   
  1.8787879E+09     4.1136084E-01     2.8169761E+01   
  1.8939394E+09     4.1745183E-01     2.7582752E+01   
  1.9090909E+09     4.2322843E-01     2.6997933E+01   
  1.9242424E+09     4.2869989E-01     2.6416878E+01   
  1.9393939E+09     4.3386472E-01     2.5840122E+01   
  1.9545455E+09     4.3875041E-01     2.5270169E+01   
  1.9696970E+09     4.4334328E-01     2.4706290E+01   
  1.9848485E+09     4.4766110E-01     2.4149947E+01   
  2.0000000E+09     4.5171387E-01     2.3602078E+01   
  2.0151515E+09     4.5550174E-01     2.3062570E+01   
  2.0303030E+09     4.5903824E-01     2.2532423E+01   
  2.0454545E+09     4.6232854E-01     2.2011920E+01   
  2.0606061E+09     4.6538247E-01     2.1501724E+01   
  2.0757576E+09     4.6820231E-01     2.1001885E+01   
  2.0909091E+09     4.7079811E-01     2.0513064E+01   
  2.1060606E+09     4.7317475E-01     2.0035540E+01   
  2.1212121E+09     4.7533640E-01     1.9569426E+01   
  2.1363636E+09     4.7729459E-01     1.9115585E+01   
  2.1515152E+09     4.7906134E-01     1.8674735E+01   
  2.1666667E+09     4.8063536E-01     1.8246507E+01   
  2.1818182E+09     4.8203173E-01     1.7831766E+01   
  2.1969697E+09     4.8324952E-01     1.7429873E+01   
  2.2121212E+09     4.8430770E-01     1.7042202E+01   
  2.2272727E+09     4.8521028E-01     1.6668575E+01   
  2.2424242E+09     4.8596270E-01     1.6308716E+01   
  2.2575758E+09     4.8657168E-01     1.5962701E+01   
  2.2727273E+09     4.8705240E-01     1.5631666E+01   
  2.2878788E+09     4.8740074E-01     1.5314116E+01   
  2.3030303E+09     4.8763058E-01     1.5011230E+01   
  2.3181818E+09     4.8774908E-01     1.4723154E+01   
  2.3333333E+09     4.8775764E-01     1.4449398E+01   
  2.3484848E+09     4.8766682E-01     1.4190566E+01   
  2.3636364E+09     4.8748018E-01     1.3946303E+01   
  2.3787879E+09     4.8720800E-01     1.3717356E+01   
  2.3939394E+09     4.8685631E-01     1.3503663E+01   
  2.4090909E+09     4.8643121E-01     1.3305087E+01   
  2.4242424E+09     4.8594184E-01     1.3122058E+01   
  2.4393939E+09     4.8539336E-01     1.2954323E+01   
  2.4545455E+09     4.8479509E-01     1.2802198E+01   
  2.4696970E+09     4.8415097E-01     1.2665066E+01   
  2.4848485E+09     4.8346921E-01     1.2543270E+01   
  2.5000000E+09     4.8275788E-01     1.2436758E+01   
  2.5151515E+09     4.8202259E-01     1.2345335E+01   
  2.5303030E+09     4.8127080E-01     1.2269050E+01   
  2.5454545E+09     4.8050606E-01     1.2207155E+01   
  2.5606061E+09     4.7973866E-01     1.2160294E+01   
  2.5757576E+09     4.7897216E-01     1.2127866E+01   
  2.5909091E+09     4.7821335E-01     1.2109644E+01   
  2.6060606E+09     4.7746509E-01     1.2105018E+01   
  2.6212121E+09     4.7673526E-01     1.2114144E+01   
  2.6363636E+09     4.7602913E-01     1.2136875E+01   
  2.6515152E+09     4.7535089E-01     1.2172624E+01   
  2.6666667E+09     4.7470624E-01     1.2221229E+01   
  2.6818182E+09     4.7410212E-01     1.2282670E+01   
  2.6969697E+09     4.7354178E-01     1.2356339E+01   
  2.7121212E+09     4.7302612E-01     1.2441206E+01   
  2.7272727E+09     4.7256769E-01     1.2538238E+01   
  2.7424242E+09     4.7216807E-01     1.2646499E+01   
  2.7575758E+09     4.7182997E-01     1.2765123E+01   
  2.7727273E+09     4.7155948E-01     1.2893831E+01   
  2.7878788E+09     4.7136287E-01     1.3032505E+01   
  2.8030303E+09     4.7124268E-01     1.3180230E+01   
  2.8181818E+09     4.7120281E-01     1.3336495E+01   
  2.8333333E+09     4.7124893E-01     1.3500986E+01   
  2.8484848E+09     4.7138533E-01     1.3673004E+01   
  2.8636364E+09     4.7161486E-01     1.3851809E+01   
  2.8787879E+09     4.7194029E-01     1.4036590E+01   
  2.8939394E+09     4.7236448E-01     1.4226633E+01   
  2.9090909E+09     4.7289497E-01     1.4421857E+01   
  2.9242424E+09     4.7352895E-01     1.4620574E+01   
  2.9393939E+09     4.7427580E-01     1.4823014E+01   
  2.9545455E+09     4.7513357E-01     1.5027681E+01   
  2.9696970E+09     4.7610231E-01     1.5233446E+01   
  2.9848485E+09     4.7719026E-01     1.5440434E+01   
  3.0000000E+09     4.7839657E-01     1.5647339E+01   
