! S-parameter export from POSTFEKO
! Filename: cloverleaf_ground_spherical_coarse
! Creation date: 2020-01-14 17:45:46
! 
# Hz S MA R    1.0000000E+02 
  1.5000000E+09     1.5709270E-01     2.8850143E+01   
  1.5151515E+09     1.6950364E-01     3.0921761E+01   
  1.5303030E+09     1.8211877E-01     3.2495213E+01   
  1.5454545E+09     1.9483087E-01     3.3672455E+01   
  1.5606061E+09     2.0751175E-01     3.4521343E+01   
  1.5757576E+09     2.2009518E-01     3.5106762E+01   
  1.5909091E+09     2.3252711E-01     3.5478668E+01   
  1.6060606E+09     2.4475238E-01     3.5674240E+01   
  1.6212121E+09     2.5673663E-01     3.5725691E+01   
  1.6363636E+09     2.6845784E-01     3.5659278E+01   
  1.6515152E+09     2.7988968E-01     3.5495013E+01   
  1.6666667E+09     2.9101682E-01     3.5249892E+01   
  1.6818182E+09     3.0181450E-01     3.4936619E+01   
  1.6969697E+09     3.1228766E-01     3.4568390E+01   
  1.7121212E+09     3.2241869E-01     3.4153480E+01   
  1.7272727E+09     3.3221272E-01     3.3700982E+01   
  1.7424242E+09     3.4166193E-01     3.3216952E+01   
  1.7575758E+09     3.5076801E-01     3.2707370E+01   
  1.7727273E+09     3.5952480E-01     3.2176419E+01   
  1.7878788E+09     3.6794046E-01     3.1628806E+01   
  1.8030303E+09     3.7601256E-01     3.1067760E+01   
  1.8181818E+09     3.8374632E-01     3.0496583E+01   
  1.8333333E+09     3.9114585E-01     2.9918100E+01   
  1.8484848E+09     3.9820933E-01     2.9334408E+01   
  1.8636364E+09     4.0494072E-01     2.8747576E+01   
  1.8787879E+09     4.1135103E-01     2.8160120E+01   
  1.8939394E+09     4.1743683E-01     2.7573011E+01   
  1.9090909E+09     4.2320861E-01     2.6988154E+01   
  1.9242424E+09     4.2867731E-01     2.6407193E+01   
  1.9393939E+09     4.3384521E-01     2.5831036E+01   
  1.9545455E+09     4.3871926E-01     2.5260531E+01   
  1.9696970E+09     4.4331516E-01     2.4697283E+01   
  1.9848485E+09     4.4762879E-01     2.4141040E+01   
  2.0000000E+09     4.5167649E-01     2.3593187E+01   
  2.0151515E+09     4.5546390E-01     2.3054106E+01   
  2.0303030E+09     4.5899711E-01     2.2524131E+01   
  2.0454545E+09     4.6228558E-01     2.2003957E+01   
  2.0606061E+09     4.6533607E-01     2.1493906E+01   
  2.0757576E+09     4.6815441E-01     2.0994384E+01   
  2.0909091E+09     4.7074623E-01     2.0505631E+01   
  2.1060606E+09     4.7312085E-01     2.0028329E+01   
  2.1212121E+09     4.7528448E-01     1.9562789E+01   
  2.1363636E+09     4.7724400E-01     1.9109437E+01   
  2.1515152E+09     4.7900744E-01     1.8668614E+01   
  2.1666667E+09     4.8058010E-01     1.8240567E+01   
  2.1818182E+09     4.8197099E-01     1.7825568E+01   
  2.1969697E+09     4.8319145E-01     1.7424294E+01   
  2.2121212E+09     4.8424919E-01     1.7036912E+01   
  2.2272727E+09     4.8515049E-01     1.6663450E+01   
  2.2424242E+09     4.8590196E-01     1.6303833E+01   
  2.2575758E+09     4.8651159E-01     1.5958227E+01   
  2.2727273E+09     4.8698647E-01     1.5626789E+01   
  2.2878788E+09     4.8733604E-01     1.5309734E+01   
  2.3030303E+09     4.8756701E-01     1.5007336E+01   
  2.3181818E+09     4.8768250E-01     1.4719175E+01   
  2.3333333E+09     4.8769117E-01     1.4445729E+01   
  2.3484848E+09     4.8759804E-01     1.4186875E+01   
  2.3636364E+09     4.8741303E-01     1.3943161E+01   
  2.3787879E+09     4.8714068E-01     1.3714503E+01   
  2.3939394E+09     4.8678866E-01     1.3501075E+01   
  2.4090909E+09     4.8636185E-01     1.3302549E+01   
  2.4242424E+09     4.8587336E-01     1.3119970E+01   
  2.4393939E+09     4.8532326E-01     1.2952326E+01   
  2.4545455E+09     4.8472312E-01     1.2800247E+01   
  2.4696970E+09     4.8407838E-01     1.2663360E+01   
  2.4848485E+09     4.8339724E-01     1.2542030E+01   
  2.5000000E+09     4.8268639E-01     1.2435962E+01   
  2.5151515E+09     4.8194932E-01     1.2344579E+01   
  2.5303030E+09     4.8119702E-01     1.2268557E+01   
  2.5454545E+09     4.8043353E-01     1.2207236E+01   
  2.5606061E+09     4.7966561E-01     1.2160596E+01   
  2.5757576E+09     4.7889815E-01     1.2128294E+01   
  2.5909091E+09     4.7813827E-01     1.2110190E+01   
  2.6060606E+09     4.7739147E-01     1.2106081E+01   
  2.6212121E+09     4.7666278E-01     1.2115637E+01   
  2.6363636E+09     4.7595746E-01     1.2138707E+01   
  2.6515152E+09     4.7528036E-01     1.2174781E+01   
  2.6666667E+09     4.7463762E-01     1.2223824E+01   
  2.6818182E+09     4.7403423E-01     1.2285475E+01   
  2.6969697E+09     4.7347516E-01     1.2359373E+01   
  2.7121212E+09     4.7296243E-01     1.2444763E+01   
  2.7272727E+09     4.7250548E-01     1.2542013E+01   
  2.7424242E+09     4.7210774E-01     1.2650507E+01   
  2.7575758E+09     4.7176982E-01     1.2769063E+01   
  2.7727273E+09     4.7150270E-01     1.2898233E+01   
  2.7878788E+09     4.7130701E-01     1.3036916E+01   
  2.8030303E+09     4.7119053E-01     1.3185144E+01   
  2.8181818E+09     4.7115157E-01     1.3341398E+01   
  2.8333333E+09     4.7120041E-01     1.3506134E+01   
  2.8484848E+09     4.7133889E-01     1.3678290E+01   
  2.8636364E+09     4.7156940E-01     1.3857062E+01   
  2.8787879E+09     4.7189622E-01     1.4041848E+01   
  2.8939394E+09     4.7232468E-01     1.4232361E+01   
  2.9090909E+09     4.7285475E-01     1.4427290E+01   
  2.9242424E+09     4.7349218E-01     1.4626310E+01   
  2.9393939E+09     4.7424032E-01     1.4828694E+01   
  2.9545455E+09     4.7510029E-01     1.5033489E+01   
  2.9696970E+09     4.7607276E-01     1.5239542E+01   
  2.9848485E+09     4.7716104E-01     1.5446335E+01   
  3.0000000E+09     4.7836908E-01     1.5653259E+01   
