! S-parameter export from POSTFEKO
! Filename: cloverleaf_ground_plane
! Creation date: 2020-01-06 15:27:49
! 
# Hz S MA R     1.0000000E+2 
   4.0000000E+8      9.9990540E-1     -2.4393860E+1   
   4.5200000E+8      9.9979748E-1     -2.7983247E+1   
   5.0400000E+8      9.9959838E-1     -3.1745988E+1   
   5.5600000E+8      9.9924415E-1     -3.5715792E+1   
   6.0800000E+8      9.9865709E-1     -3.9927753E+1   
   6.6000000E+8      9.9769255E-1     -4.4429218E+1   
   7.1200000E+8      9.9616926E-1     -4.9267338E+1   
   7.6400000E+8      9.9380900E-1     -5.4504239E+1   
   8.1600000E+8      9.9022708E-1     -6.0208069E+1   
   8.6800000E+8      9.8489162E-1     -6.6456259E+1   
   9.2000000E+8      9.7709785E-1     -7.3332908E+1   
   9.7200000E+8      9.6595941E-1     -8.0932685E+1   
   1.0240000E+9      9.5023671E-1     -8.9355750E+1   
   1.0760000E+9      9.2871564E-1     -9.8687456E+1   
   1.1280000E+9      9.0014201E-1     -1.0900318E+2   
   1.1800000E+9      8.6367813E-1     -1.2032410E+2   
   1.2320000E+9      8.1931211E-1     -1.3263602E+2   
   1.2840000E+9      7.6832317E-1     -1.4584666E+2   
   1.3360000E+9      7.1336041E-1     -1.5980101E+2   
   1.3880000E+9      6.5805586E-1     -1.7428075E+2   
   1.4400000E+9      6.0618240E-1      1.7097648E+2   
   1.4920000E+9      5.6074232E-1      1.5628157E+2   
   1.5440000E+9      5.2339610E-1      1.4195900E+2   
   1.5960000E+9      4.9434792E-1      1.2833219E+2   
   1.6480000E+9      4.7273676E-1      1.1564803E+2   
   1.7000000E+9      4.5708751E-1      1.0407308E+2   
   1.7520000E+9      4.4581591E-1      9.3670773E+1   
   1.8040000E+9      4.3743740E-1      8.4421620E+1   
   1.8560000E+9      4.3079486E-1      7.6253517E+1   
   1.9080000E+9      4.2501904E-1      6.9069792E+1   
   1.9600000E+9      4.1952827E-1      6.2766465E+1   
   2.0120000E+9      4.1390707E-1      5.7249336E+1   
   2.0640000E+9      4.0792712E-1      5.2434751E+1   
   2.1160000E+9      4.0146719E-1      4.8254332E+1   
   2.1680000E+9      3.9449636E-1      4.4654793E+1   
   2.2200000E+9      3.8705669E-1      4.1595406E+1   
   2.2720000E+9      3.7924236E-1      3.9047748E+1   
   2.3240000E+9      3.7120496E-1      3.6993590E+1   
   2.3760000E+9      3.6309816E-1      3.5419316E+1   
   2.4280000E+9      3.5526131E-1      3.4312975E+1   
   2.4800000E+9      3.4793271E-1      3.3677398E+1   
   2.5320000E+9      3.4144973E-1      3.3492453E+1   
   2.5840000E+9      3.3618349E-1      3.3733201E+1   
   2.6360000E+9      3.3251574E-1      3.4357840E+1   
   2.6880000E+9      3.3081721E-1      3.5303606E+1   
   2.7400000E+9      3.3140773E-1      3.6485315E+1   
   2.7920000E+9      3.3455347E-1      3.7797685E+1   
   2.8440000E+9      3.4038537E-1      3.9127903E+1   
   2.8960000E+9      3.4892154E-1      4.0362216E+1   
   2.9480000E+9      3.6004231E-1      4.1400845E+1   
   3.0000000E+9      3.7350302E-1      4.2166023E+1   
