! S-parameter export from POSTFEKO
! Filename: cloverleaf_coarse_ground_spherical
! Creation date: 2020-01-08 10:34:23
! 
# Hz S MA R     1.0000000E+2 
   4.0000000E+8      9.9990367E-1     -2.4208164E+1   
   4.5200000E+8      9.9978798E-1     -2.7770088E+1   
   5.0400000E+8      9.9957758E-1     -3.1504128E+1   
   5.5600000E+8      9.9921098E-1     -3.5442229E+1   
   6.0800000E+8      9.9858888E-1     -3.9622622E+1   
   6.6000000E+8      9.9758297E-1     -4.4087213E+1   
   7.1200000E+8      9.9601837E-1     -4.8885887E+1   
   7.6400000E+8      9.9363894E-1     -5.4080773E+1   
   8.1600000E+8      9.9004622E-1     -5.9735775E+1   
   8.6800000E+8      9.8469831E-1     -6.5934403E+1   
   9.2000000E+8      9.7687525E-1     -7.2758346E+1   
   9.7200000E+8      9.6571672E-1     -8.0302992E+1   
   1.0240000E+9      9.5000226E-1     -8.8676890E+1   
   1.0760000E+9      9.2832644E-1     -9.7950336E+1   
   1.1280000E+9      8.9944225E-1     -1.0820290E+2   
   1.1800000E+9      8.6258363E-1     -1.1946064E+2   
   1.2320000E+9      8.1787147E-1     -1.3169798E+2   
   1.2840000E+9      7.6655573E-1     -1.4483915E+2   
   1.3360000E+9      7.1142046E-1     -1.5874328E+2   
   1.3880000E+9      6.5596853E-1     -1.7320256E+2   
   1.4400000E+9      6.0403911E-1      1.7203589E+2   
   1.4920000E+9      5.5860341E-1      1.5727153E+2   
   1.5440000E+9      5.2123449E-1      1.4283686E+2   
   1.5960000E+9      4.9210899E-1      1.2907146E+2   
   1.6480000E+9      4.7046052E-1      1.1626579E+2   
   1.7000000E+9      4.5498478E-1      1.0459582E+2   
   1.7520000E+9      4.4409365E-1      9.4117436E+1   
   1.8040000E+9      4.3625498E-1      8.4805062E+1   
   1.8560000E+9      4.3022911E-1      7.6584750E+1   
   1.9080000E+9      4.2511466E-1      6.9358326E+1   
   1.9600000E+9      4.2030404E-1      6.3021049E+1   
   2.0120000E+9      4.1541347E-1      5.7471446E+1   
   2.0640000E+9      4.1018922E-1      5.2616130E+1   
   2.1160000E+9      4.0443248E-1      4.8381830E+1   
   2.1680000E+9      3.9808325E-1      4.4721804E+1   
   2.2200000E+9      3.9122378E-1      4.1596250E+1   
   2.2720000E+9      3.8395888E-1      3.8969900E+1   
   2.3240000E+9      3.7640469E-1      3.6819257E+1   
   2.3760000E+9      3.6872355E-1      3.5132363E+1   
   2.4280000E+9      3.6115315E-1      3.3903512E+1   
   2.4800000E+9      3.5399867E-1      3.3124502E+1   
   2.5320000E+9      3.4759233E-1      3.2778125E+1   
   2.5840000E+9      3.4226630E-1      3.2837311E+1   
   2.6360000E+9      3.3835452E-1      3.3262142E+1   
   2.6880000E+9      3.3615549E-1      3.3999008E+1   
   2.7400000E+9      3.3596515E-1      3.4980972E+1   
   2.7920000E+9      3.3803906E-1      3.6123545E+1   
   2.8440000E+9      3.4254315E-1      3.7329500E+1   
   2.8960000E+9      3.4955780E-1      3.8497523E+1   
   2.9480000E+9      3.5905297E-1      3.9531287E+1   
   3.0000000E+9      3.7088994E-1      4.0347143E+1   
